(1777141327.363089) can0 404#9C5F0100
(1777141327.363105) can0 414#D4FFFFFF
(1777141327.363206) can0 231#00
(1777141327.363730) can0 232#00
(1777141327.365557) can0 234#00
(1777141327.365743) can0 233#00
(1777141327.410457) can0 401#A05F0100
(1777141327.410476) can0 411#E6FFFFFF
(1777141327.410506) can0 402#925F0100
(1777141327.410591) can0 412#EEFFFFFF
(1777141327.411889) can0 403#8D5F0100
(1777141327.411902) can0 413#A8FFFFFF
(1777141327.413001) can0 404#AA5F0100
(1777141327.413015) can0 414#19010000
(1777141327.460470) can0 401#9F5F0100
(1777141327.460501) can0 411#EFFFFFFF
(1777141327.460522) can0 402#935F0100
(1777141327.460649) can0 412#09000000
(1777141327.461901) can0 403#8D5F0100
(1777141327.461910) can0 413#00000000
(1777141327.463019) can0 404#AB5F0100
(1777141327.463027) can0 414#09000000
(1777141327.510457) can0 401#9F5F0100
(1777141327.510483) can0 411#F7FFFFFF
(1777141327.510492) can0 402#935F0100
(1777141327.510606) can0 412#00000000
(1777141327.511854) can0 403#8D5F0100
(1777141327.511862) can0 413#F7FFFFFF
(1777141327.513056) can0 404#AB5F0100
(1777141327.513064) can0 414#00000000
(1777141327.560487) can0 401#A05F0100
(1777141327.560497) can0 411#11000000
(1777141327.560538) can0 402#935F0100
(1777141327.560613) can0 412#00000000
(1777141327.561870) can0 403#8C5F0100
(1777141327.561878) can0 413#EFFFFFFF
(1777141327.563051) can0 404#AD5F0100
(1777141327.563059) can0 414#23000000
(1777141327.567744) can0 201#905F0100
(1777141327.569585) can0 202#905F0100
(1777141327.569809) can0 203#905F0100
(1777141327.570963) can0 204#905F0100
(1777141327.610486) can0 401#A15F0100
(1777141327.610502) can0 411#1A000000
(1777141327.610525) can0 402#925F0100
(1777141327.610604) can0 412#F7FFFFFF
(1777141327.611832) can0 403#8B5F0100
(1777141327.611844) can0 413#F7FFFFFF
(1777141327.612973) can0 404#AC5F0100
(1777141327.613015) can0 414#EFFFFFFF
(1777141327.624081) can0 201#905F0100
(1777141327.624372) can0 202#905F0100
(1777141327.625282) can0 203#905F0100
(1777141327.625578) can0 204#905F0100
(1777141327.660487) can0 401#A15F0100
(1777141327.660507) can0 411#F7FFFFFF
(1777141327.660543) can0 402#945F0100
(1777141327.660618) can0 412#23000000
(1777141327.661724) can0 403#8C5F0100
(1777141327.661808) can0 413#09000000
(1777141327.662977) can0 404#AA5F0100
(1777141327.663055) can0 414#DDFFFFFF
(1777141327.677370) can0 201#905F0100
(1777141327.678937) can0 203#905F0100
(1777141327.679215) can0 202#905F0100
(1777141327.679637) can0 204#905F0100
(1777141327.710389) can0 401#A15F0100
(1777141327.710419) can0 411#00000000
(1777141327.710496) can0 402#945F0100
(1777141327.710570) can0 412#00000000
(1777141327.710694) can0 431#50C3000001010300
(1777141327.710800) can0 422#402BFEFFC0D40100
(1777141327.710919) can0 432#50C3000001010300
(1777141327.711743) can0 403#8D5F0100
(1777141327.711822) can0 413#1A000000
(1777141327.711946) can0 5F3#FB0101011F000001
(1777141327.712045) can0 423#402BFEFFC0D40100
(1777141327.712196) can0 433#50C3000001010300
(1777141327.712914) can0 404#AC5F0100
(1777141327.712994) can0 414#23000000
(1777141327.713119) can0 5F4#FB0101011F000001
(1777141327.713219) can0 424#402BFEFFC0D40100
(1777141327.713345) can0 434#50C3000001010300
(1777141327.731587) can0 201#905F0100
(1777141327.733265) can0 203#905F0100
(1777141327.733491) can0 202#905F0100
(1777141327.733826) can0 204#905F0100
(1777141327.760476) can0 401#9F5F0100
(1777141327.760495) can0 411#DDFFFFFF
(1777141327.760504) can0 402#925F0100
(1777141327.760572) can0 412#DDFFFFFF
(1777141327.761876) can0 403#8C5F0100
(1777141327.761884) can0 413#EFFFFFFF
(1777141327.762921) can0 404#AA5F0100
(1777141327.763045) can0 414#E6FFFFFF
(1777141327.786677) can0 202#905F0100
(1777141327.786966) can0 201#905F0100
(1777141327.787229) can0 203#905F0100
(1777141327.788381) can0 204#905F0100
(1777141327.810530) can0 401#A15F0100
(1777141327.810542) can0 411#23000000
(1777141327.810544) can0 402#915F0100
(1777141327.810625) can0 412#EEFFFFFF
(1777141327.811757) can0 403#8C5F0100
(1777141327.811905) can0 413#00000000
(1777141327.812940) can0 404#AA5F0100
(1777141327.812982) can0 414#EEFFFFFF
(1777141327.840285) can0 201#905F0100
(1777141327.842100) can0 203#905F0100
(1777141327.842302) can0 202#905F0100
(1777141327.843005) can0 204#905F0100
(1777141327.860443) can0 401#A05F0100
(1777141327.860458) can0 411#EEFFFFFF
(1777141327.860477) can0 402#945F0100
(1777141327.860576) can0 412#35000000
(1777141327.861883) can0 403#8C5F0100
(1777141327.861890) can0 413#F7FFFFFF
(1777141327.862939) can0 404#AA5F0100
(1777141327.863070) can0 414#12000000
(1777141327.895916) can0 201#905F0100
(1777141327.897464) can0 203#905F0100
(1777141327.897680) can0 202#905F0100
(1777141327.897889) can0 204#905F0100
(1777141327.910452) can0 401#A05F0100
(1777141327.910465) can0 411#09000000
(1777141327.910505) can0 402#935F0100
(1777141327.910604) can0 412#E6FFFFFF
(1777141327.911794) can0 403#8D5F0100
(1777141327.911917) can0 413#11000000
(1777141327.912962) can0 404#AA5F0100
(1777141327.913031) can0 414#F7FFFFFF
(1777141327.949409) can0 201#905F0100
(1777141327.950211) can0 202#905F0100
(1777141327.950791) can0 203#905F0100
(1777141327.951310) can0 204#905F0100
(1777141327.960450) can0 401#A05F0100
(1777141327.960462) can0 411#F7FFFFFF
(1777141327.960508) can0 402#925F0100
(1777141327.960608) can0 412#EFFFFFFF
(1777141327.961915) can0 403#8C5F0100
(1777141327.961923) can0 413#F7FFFFFF
(1777141327.962965) can0 404#AC5F0100
(1777141327.963032) can0 414#23000000
(1777141328.003079) can0 201#905F0100
(1777141328.004842) can0 203#905F0100
(1777141328.005052) can0 202#905F0100
(1777141328.005403) can0 204#905F0100
(1777141328.010385) can0 401#9F5F0100
(1777141328.010410) can0 411#EFFFFFFF
(1777141328.010509) can0 402#935F0100
(1777141328.010609) can0 412#1A000000
(1777141328.011916) can0 403#8C5F0100
(1777141328.011925) can0 413#00000000
(1777141328.012967) can0 404#AB5F0100
(1777141328.013034) can0 414#EEFFFFFF
(1777141328.058400) can0 202#905F0100
(1777141328.058620) can0 201#905F0100
(1777141328.059011) can0 203#905F0100
(1777141328.059573) can0 204#905F0100
(1777141328.060518) can0 401#A15F0100
(1777141328.060532) can0 411#2C000000
(1777141328.060535) can0 402#925F0100
(1777141328.060612) can0 412#EEFFFFFF
(1777141328.062136) can0 403#8C5F0100
(1777141328.062144) can0 413#F7FFFFFF
(1777141328.062975) can0 404#AB5F0100
(1777141328.063041) can0 414#00000000
(1777141328.110462) can0 401#9F5F0100
(1777141328.110484) can0 411#DDFFFFFF
(1777141328.110539) can0 402#935F0100
(1777141328.110613) can0 412#09000000
(1777141328.111806) can0 403#8B5F0100
(1777141328.111891) can0 413#F7FFFFFF
(1777141328.112222) can0 201#905F0100
(1777141328.112987) can0 404#AC5F0100
(1777141328.113064) can0 414#12000000
(1777141328.113754) can0 203#905F0100
(1777141328.113965) can0 202#905F0100
(1777141328.114726) can0 204#905F0100
(1777141328.160546) can0 401#A05F0100
(1777141328.160576) can0 402#935F0100
(1777141328.160583) can0 412#09000000
(1777141328.161910) can0 403#8D5F0100
(1777141328.161919) can0 413#1A000000
(1777141328.163059) can0 404#AB5F0100
(1777141328.163068) can0 414#F7FFFFFF
(1777141328.167739) can0 201#905F0100
(1777141328.168166) can0 202#905F0100
(1777141328.168900) can0 203#905F0100
(1777141328.170164) can0 204#905F0100
(1777141328.210498) can0 401#A05F0100
(1777141328.210525) can0 411#00000000
(1777141328.210534) can0 402#935F0100
(1777141328.210594) can0 412#00000000
(1777141328.210693) can0 431#50C3000001010300
(1777141328.210826) can0 422#402BFEFFC0D40100
(1777141328.211022) can0 432#50C3000001010300
(1777141328.211740) can0 403#8C5F0100
(1777141328.211893) can0 413#EFFFFFFF
(1777141328.211945) can0 5F3#FB0101011F000001
(1777141328.212044) can0 423#402BFEFFC0D40100
(1777141328.212169) can0 433#50C3000001010300
(1777141328.212941) can0 404#AA5F0100
(1777141328.213020) can0 414#EFFFFFFF
(1777141328.213144) can0 5F4#FB0101011F000001
(1777141328.213270) can0 424#402BFEFFC0D40100
(1777141328.213368) can0 434#50C3000001010300
(1777141328.222649) can0 201#905F0100
(1777141328.223274) can0 202#905F0100
(1777141328.224723) can0 204#905F0100
(1777141328.225003) can0 203#905F0100
(1777141328.260527) can0 401#A05F0100
(1777141328.260540) can0 411#00000000
(1777141328.260543) can0 402#925F0100
(1777141328.260621) can0 412#EEFFFFFF
(1777141328.261880) can0 403#8C5F0100
(1777141328.261888) can0 413#09000000
(1777141328.262941) can0 404#AB5F0100
(1777141328.263062) can0 414#09000000
(1777141328.276830) can0 201#905F0100
(1777141328.277461) can0 202#905F0100
(1777141328.278296) can0 203#905F0100
(1777141328.279799) can0 204#905F0100
(1777141328.310497) can0 401#A05F0100
(1777141328.310517) can0 411#09000000
(1777141328.310549) can0 402#935F0100
(1777141328.310623) can0 412#09000000
(1777141328.311895) can0 403#8C5F0100
(1777141328.311910) can0 413#F7FFFFFF
(1777141328.313001) can0 404#AA5F0100
(1777141328.313014) can0 414#EFFFFFFF
(1777141328.331715) can0 201#905F0100
(1777141328.333239) can0 203#905F0100
(1777141328.333451) can0 202#905F0100
(1777141328.334764) can0 204#905F0100
(1777141328.360562) can0 401#A15F0100
(1777141328.360584) can0 411#12000000
(1777141328.360586) can0 402#925F0100
(1777141328.360651) can0 412#EFFFFFFF
(1777141328.361894) can0 403#8B5F0100
(1777141328.361903) can0 413#EEFFFFFF
(1777141328.362959) can0 404#AB5F0100
(1777141328.363027) can0 414#11000000
(1777141328.387902) can0 201#905F0100
(1777141328.388344) can0 202#905F0100
(1777141328.388729) can0 203#905F0100
(1777141328.390593) can0 204#905F0100
(1777141328.410472) can0 401#A05F0100
(1777141328.410489) can0 411#E6FFFFFF
(1777141328.410528) can0 402#945F0100
(1777141328.410628) can0 412#23000000
(1777141328.411892) can0 403#8C5F0100
(1777141328.411905) can0 413#12000000
(1777141328.413044) can0 404#AC5F0100
(1777141328.413058) can0 414#12000000
(1777141328.443404) can0 201#905F0100
(1777141328.445295) can0 202#905F0100
(1777141328.445507) can0 203#905F0100
(1777141328.446310) can0 204#905F0100
(1777141328.460475) can0 401#A05F0100
(1777141328.460503) can0 411#00000000
(1777141328.460520) can0 402#935F0100
(1777141328.460606) can0 412#EEFFFFFF
(1777141328.461949) can0 403#8C5F0100
(1777141328.461959) can0 413#00000000
(1777141328.462990) can0 404#AB5F0100
(1777141328.463032) can0 414#EEFFFFFF
(1777141328.498603) can0 201#905F0100
(1777141328.500296) can0 202#905F0100
(1777141328.500506) can0 203#905F0100
(1777141328.500898) can0 204#905F0100
(1777141328.510382) can0 401#A15F0100
(1777141328.510434) can0 411#12000000
(1777141328.510533) can0 402#925F0100
(1777141328.510633) can0 412#F7FFFFFF
(1777141328.511755) can0 403#8C5F0100
(1777141328.511833) can0 413#09000000
(1777141328.512981) can0 404#AC5F0100
(1777141328.513060) can0 414#12000000
(1777141328.554070) can0 201#905F0100
(1777141328.554475) can0 202#905F0100
(1777141328.555968) can0 203#905F0100
(1777141328.556177) can0 204#905F0100
(1777141328.560384) can0 401#9F5F0100
(1777141328.560467) can0 411#E6FFFFFF
(1777141328.560541) can0 402#925F0100
(1777141328.560635) can0 412#00000000
(1777141328.561756) can0 403#8C5F0100
(1777141328.561836) can0 413#00000000
(1777141328.562930) can0 404#AB5F0100
(1777141328.563017) can0 414#F7FFFFFF
(1777141328.609253) can0 201#905F0100
(1777141328.609633) can0 202#905F0100
(1777141328.610154) can0 203#905F0100
(1777141328.610364) can0 401#A05F0100
(1777141328.610463) can0 411#09000000
(1777141328.610563) can0 402#925F0100
(1777141328.610637) can0 412#00000000
(1777141328.611421) can0 204#905F0100
(1777141328.611766) can0 403#8C5F0100
(1777141328.611929) can0 413#F7FFFFFF
(1777141328.612955) can0 404#AA5F0100
(1777141328.613038) can0 414#EFFFFFFF
(1777141328.660512) can0 401#A05F0100
(1777141328.660539) can0 411#09000000
(1777141328.660548) can0 402#925F0100
(1777141328.660616) can0 412#00000000
(1777141328.661878) can0 403#8C5F0100
(1777141328.661888) can0 413#00000000
(1777141328.662929) can0 404#AB5F0100
(1777141328.663016) can0 414#09000000
(1777141328.664698) can0 201#905F0100
(1777141328.665162) can0 202#905F0100
(1777141328.666206) can0 203#905F0100
(1777141328.666418) can0 204#905F0100
(1777141328.710523) can0 401#A05F0100
(1777141328.710550) can0 411#F7FFFFFF
(1777141328.710567) can0 402#935F0100
(1777141328.710646) can0 412#12000000
(1777141328.710743) can0 431#50C3000001010300
(1777141328.710951) can0 422#402BFEFFC0D40100
(1777141328.711030) can0 432#50C3000001010300
(1777141328.711934) can0 403#8C5F0100
(1777141328.711945) can0 413#00000000
(1777141328.712099) can0 5F3#FB0101011F000001
(1777141328.712110) can0 423#402BFEFFC0D40100
(1777141328.712315) can0 433#50C3000001010300
(1777141328.713051) can0 404#AB5F0100
(1777141328.713074) can0 414#09000000
(1777141328.713168) can0 5F4#FB0101011F000001
(1777141328.713293) can0 424#402BFEFFC0D40100
(1777141328.713418) can0 434#50C3000001010300
(1777141328.718664) can0 201#905F0100
(1777141328.720524) can0 203#905F0100
(1777141328.720736) can0 202#905F0100
(1777141328.721349) can0 204#905F0100
(1777141328.760540) can0 401#A15F0100
(1777141328.760566) can0 411#12000000
(1777141328.760582) can0 402#925F0100
(1777141328.760646) can0 412#EEFFFFFF
(1777141328.761887) can0 403#8C5F0100
(1777141328.761899) can0 413#09000000
(1777141328.762978) can0 404#AC5F0100
(1777141328.763046) can0 414#12000000
(1777141328.774494) can0 201#905F0100
(1777141328.774705) can0 202#905F0100
(1777141328.775191) can0 203#905F0100
(1777141328.776395) can0 204#905F0100
(1777141328.810530) can0 401#9F5F0100
(1777141328.810548) can0 411#E6FFFFFF
(1777141328.810574) can0 402#925F0100
(1777141328.810673) can0 412#F7FFFFFF
(1777141328.811789) can0 403#8D5F0100
(1777141328.811910) can0 413#09000000
(1777141328.812982) can0 404#AB5F0100
(1777141328.813048) can0 414#EEFFFFFF
(1777141328.829542) can0 201#905F0100
(1777141328.829755) can0 202#905F0100
(1777141328.830492) can0 203#905F0100
(1777141328.830701) can0 204#905F0100
(1777141328.860520) can0 401#A15F0100
(1777141328.860550) can0 411#1A000000
(1777141328.860569) can0 402#945F0100
(1777141328.860625) can0 412#23000000
(1777141328.861912) can0 403#8C5F0100
(1777141328.861920) can0 413#EFFFFFFF
(1777141328.863010) can0 404#AA5F0100
(1777141328.863076) can0 414#EFFFFFFF
(1777141328.883968) can0 201#905F0100
(1777141328.884179) can0 202#905F0100
(1777141328.884837) can0 203#905F0100
(1777141328.885282) can0 204#905F0100
(1777141328.910524) can0 401#9F5F0100
(1777141328.910550) can0 411#E6FFFFFF
(1777141328.910567) can0 402#925F0100
(1777141328.910654) can0 412#E6FFFFFF
(1777141328.911912) can0 403#8C5F0100
(1777141328.911924) can0 413#09000000
(1777141328.913061) can0 404#AA5F0100
(1777141328.913092) can0 414#F7FFFFFF
(1777141328.938528) can0 201#905F0100
(1777141328.938821) can0 202#905F0100
(1777141328.939237) can0 203#905F0100
(1777141328.940012) can0 204#905F0100
(1777141328.960429) can0 401#9F5F0100
(1777141328.960481) can0 411#00000000
(1777141328.960555) can0 402#915F0100
(1777141328.960656) can0 412#E6FFFFFF
(1777141328.961826) can0 403#8C5F0100
(1777141328.962146) can0 413#F7FFFFFF
(1777141328.962952) can0 404#AA5F0100
(1777141328.963030) can0 414#00000000
(1777141328.992997) can0 201#905F0100
(1777141328.993308) can0 202#905F0100
(1777141328.993948) can0 203#905F0100
(1777141328.994796) can0 204#905F0100
(1777141329.010545) can0 401#A05F0100
(1777141329.010567) can0 411#11000000
(1777141329.010588) can0 402#945F0100
(1777141329.010658) can0 412#3E000000
(1777141329.011924) can0 403#8D5F0100
(1777141329.011933) can0 413#1A000000
(1777141329.012992) can0 404#AB5F0100
(1777141329.013059) can0 414#1A000000
(1777141329.048008) can0 201#905F0100
(1777141329.048447) can0 202#905F0100
(1777141329.049376) can0 203#905F0100
(1777141329.049971) can0 204#905F0100
(1777141329.060512) can0 401#9F5F0100
(1777141329.060533) can0 411#EFFFFFFF
(1777141329.060562) can0 402#925F0100
(1777141329.060661) can0 412#DDFFFFFF
(1777141329.061911) can0 403#8C5F0100
(1777141329.061924) can0 413#E6FFFFFF
(1777141329.062994) can0 404#AB5F0100
(1777141329.063061) can0 414#F7FFFFFF
(1777141329.103089) can0 231#01
(1777141329.103364) can0 232#01
(1777141329.104271) can0 233#01
(1777141329.104791) can0 234#01
(1777141329.107323) can0 201#905F0100
(1777141329.107692) can0 202#905F0100
(1777141329.108544) can0 203#905F0100
(1777141329.109395) can0 204#905F0100
(1777141329.162243) can0 201#685D0100
(1777141329.164167) can0 203#685D0100
(1777141329.164393) can0 202#685D0100
(1777141329.164771) can0 204#685D0100
(1777141329.217158) can0 201#3F5B0100
(1777141329.219274) can0 202#3F5B0100
(1777141329.219739) can0 203#3F5B0100
(1777141329.220145) can0 204#3F5B0100
(1777141329.272764) can0 201#14590100
(1777141329.274719) can0 202#14590100
(1777141329.275327) can0 203#14590100
(1777141329.276117) can0 204#14590100
(1777141329.329275) can0 201#E8560100
(1777141329.329613) can0 202#E8560100
(1777141329.330635) can0 203#E8560100
(1777141329.330914) can0 204#E8560100
(1777141329.383677) can0 201#C5540100
(1777141329.383949) can0 202#C5540100
(1777141329.385054) can0 203#C5540100
(1777141329.385358) can0 204#C5540100
(1777141329.438488) can0 201#A4520100
(1777141329.438766) can0 202#A4520100
(1777141329.439858) can0 203#A4520100
(1777141329.440136) can0 204#A4520100
(1777141329.492002) can0 201#81500100
(1777141329.493676) can0 203#81500100
(1777141329.493937) can0 202#81500100
(1777141329.494464) can0 204#81500100
(1777141329.547571) can0 201#5F4E0100
(1777141329.548028) can0 202#5F4E0100
(1777141329.548793) can0 203#5F4E0100
(1777141329.550453) can0 204#5F4E0100
(1777141329.603059) can0 201#2D4C0100
(1777141329.604186) can0 202#2D4C0100
(1777141329.605274) can0 203#2D4C0100
(1777141329.606356) can0 204#2D4C0100
(1777141329.658626) can0 201#FF490100
(1777141329.659632) can0 202#FF490100
(1777141329.660478) can0 203#FF490100
(1777141329.662429) can0 204#FF490100
(1777141329.715005) can0 201#CF470100
(1777141329.716692) can0 202#CF470100
(1777141329.717048) can0 203#CF470100
(1777141329.717419) can0 204#CF470100
(1777141329.770206) can0 201#A8450100
(1777141329.772386) can0 203#A8450100
(1777141329.772599) can0 202#A8450100
(1777141329.773245) can0 204#A8450100
(1777141329.825533) can0 201#7B430100
(1777141329.826533) can0 202#7B430100
(1777141329.828364) can0 204#7B430100
(1777141329.828576) can0 203#7B430100
(1777141329.882347) can0 201#4F410100
(1777141329.882556) can0 202#4F410100
(1777141329.883205) can0 203#4F410100
(1777141329.883987) can0 204#4F410100
(1777141329.936815) can0 201#273F0100
(1777141329.938006) can0 202#273F0100
(1777141329.940536) can0 203#273F0100
(1777141329.940746) can0 204#273F0100
(1777141329.993482) can0 201#EF3C0100
(1777141329.995392) can0 203#EF3C0100
(1777141329.995688) can0 202#EF3C0100
(1777141329.996149) can0 204#EF3C0100
(1777141330.049803) can0 201#C53A0100
(1777141330.050210) can0 202#C53A0100
(1777141330.051312) can0 203#C53A0100
(1777141330.052645) can0 204#C53A0100
(1777141330.105975) can0 201#91380100
(1777141330.106186) can0 202#91380100
(1777141330.107012) can0 203#91380100
(1777141330.107222) can0 204#91380100
(1777141330.151663) can0 5F1#FB0101011F000003
(1777141330.151684) can0 421#402BFEFFC0D40100
(1777141330.151742) can0 431#50C3000001010300
(1777141330.151841) can0 401#9F5F0100
(1777141330.151941) can0 411#00000000
(1777141330.152777) can0 5F2#FB0101011F000003
(1777141330.152792) can0 422#402BFEFFC0D40100
(1777141330.153004) can0 432#50C3000001010300
(1777141330.153016) can0 402#945F0100
(1777141330.153089) can0 412#02000000
(1777141330.153286) can0 433#50C3000001010300
(1777141330.153298) can0 403#8C5F0100
(1777141330.153344) can0 413#00000000
(1777141330.153505) can0 404#AA5F0100
(1777141330.153542) can0 414#00000000
(1777141330.160033) can0 201#70360100
(1777141330.162118) can0 202#70360100
(1777141330.162323) can0 203#70360100
(1777141330.162533) can0 204#70360100
(1777141330.201674) can0 401#065F0100
(1777141330.201696) can0 411#0DF4FFFF
(1777141330.202735) can0 402#E85E0100
(1777141330.202744) can0 412#93F2FFFF
(1777141330.202944) can0 403#B45E0100
(1777141330.202972) can0 413#24EFFFFF
(1777141330.203172) can0 404#E95E0100
(1777141330.203180) can0 414#E5F0FFFF
(1777141330.215511) can0 202#48340100
(1777141330.215720) can0 201#48340100
(1777141330.216005) can0 203#48340100
(1777141330.217476) can0 204#48340100
(1777141330.251641) can0 401#F45C0100
(1777141330.251660) can0 411#87D6FFFF
(1777141330.252719) can0 402#215C0100
(1777141330.252728) can0 412#73C8FFFF
(1777141330.252799) can0 403#F15B0100
(1777141330.252968) can0 413#C2C8FFFF
(1777141330.253175) can0 404#3F5C0100
(1777141330.253184) can0 414#B7CAFFFF
(1777141330.269740) can0 201#20320100
(1777141330.270230) can0 202#20320100
(1777141330.271674) can0 204#20320100
(1777141330.272130) can0 203#20320100
(1777141330.301609) can0 401#D9590100
(1777141330.301627) can0 411#EDC1FFFF
(1777141330.302804) can0 402#E3570100
(1777141330.302812) can0 412#2AABFFFF
(1777141330.303015) can0 403#C1570100
(1777141330.303058) can0 413#43ACFFFF
(1777141330.303187) can0 404#42580100
(1777141330.303206) can0 414#3FB0FFFF
(1777141330.324538) can0 201#FD2F0100
(1777141330.325213) can0 202#FD2F0100
(1777141330.326663) can0 204#FD2F0100
(1777141330.327091) can0 203#FD2F0100
(1777141330.351606) can0 401#2A550100
(1777141330.351626) can0 411#57A2FFFF
(1777141330.352792) can0 402#7D530100
(1777141330.352806) can0 412#0AA8FFFF
(1777141330.353014) can0 403#56530100
(1777141330.353051) can0 404#D3530100
(1777141330.353211) can0 414#49A7FFFF
(1777141330.380416) can0 202#D62D0100
(1777141330.380626) can0 201#D62D0100
(1777141330.380995) can0 203#D62D0100
(1777141330.382359) can0 204#D62D0100
(1777141330.401680) can0 401#03500100
(1777141330.401698) can0 411#F898FFFF
(1777141330.402764) can0 402#064F0100
(1777141330.402777) can0 412#ABA6FFFF
(1777141330.402996) can0 403#EC4E0100
(1777141330.403028) can0 413#B2A7FFFF
(1777141330.403191) can0 404#414F0100
(1777141330.403232) can0 414#A4A4FFFF
(1777141330.435657) can0 201#B02B0100
(1777141330.435947) can0 202#B02B0100
(1777141330.436220) can0 203#B02B0100
(1777141330.437216) can0 204#B02B0100
(1777141330.451600) can0 401#764B0100
(1777141330.451615) can0 411#FCA4FFFF
(1777141330.452618) can0 402#9C4A0100
(1777141330.452683) can0 412#B2A7FFFF
(1777141330.452906) can0 403#854A0100
(1777141330.453006) can0 413#F9A7FFFF
(1777141330.453089) can0 404#D04A0100
(1777141330.453257) can0 414#26A7FFFF
(1777141330.490156) can0 201#88290100
(1777141330.492497) can0 202#88290100
(1777141330.492763) can0 203#88290100
(1777141330.493262) can0 204#88290100
(1777141330.501632) can0 401#69470100
(1777141330.501651) can0 411#F1AEFFFF
(1777141330.502726) can0 402#51460100
(1777141330.502735) can0 412#34AAFFFF
(1777141330.502920) can0 403#FA450100
(1777141330.502973) can0 413#31A5FFFF
(1777141330.503203) can0 404#8D460100
(1777141330.503254) can0 414#CAAAFFFF
(1777141330.545889) can0 201#58270100
(1777141330.546787) can0 202#58270100
(1777141330.547590) can0 203#58270100
(1777141330.548304) can0 204#58270100
(1777141330.551496) can0 401#92430100
(1777141330.551537) can0 411#33B3FFFF
(1777141330.552836) can0 402#3D420100
(1777141330.552844) can0 412#64AEFFFF
(1777141330.553004) can0 403#A3410100
(1777141330.553045) can0 413#35A9FFFF
(1777141330.553189) can0 404#46420100
(1777141330.553197) can0 414#72AAFFFF
(1777141330.601233) can0 201#32250100
(1777141330.601718) can0 401#45400100
(1777141330.601738) can0 411#03BEFFFF
(1777141330.602804) can0 402#5D3E0100
(1777141330.602814) can0 412#8CB2FFFF
(1777141330.602877) can0 403#923D0100
(1777141330.603042) can0 413#99AEFFFF
(1777141330.603094) can0 404#3D3E0100
(1777141330.603159) can0 414#52AFFFFF
(1777141330.603246) can0 202#32250100
(1777141330.603439) can0 203#32250100
(1777141330.604047) can0 204#32250100
(1777141330.651678) can0 401#E73C0100
(1777141330.651705) can0 411#ADBCFFFF
(1777141330.651734) can0 5F1#FB0101011F000003
(1777141330.651852) can0 421#402BFEFFC0D40100
(1777141330.652039) can0 431#50C3000001010300
(1777141330.652789) can0 5F2#FB0101011F000003
(1777141330.652799) can0 422#402BFEFFC0D40100
(1777141330.652867) can0 432#50C3000001010300
(1777141330.652967) can0 402#AB3A0100
(1777141330.653041) can0 412#0DB6FFFF
(1777141330.653142) can0 5F3#FB0101011F000003
(1777141330.653267) can0 424#402BFEFFC0D40100
(1777141330.653392) can0 423#402BFEFFC0D40100
(1777141330.653491) can0 404#853A0100
(1777141330.653567) can0 414#A3B5FFFF
(1777141330.657744) can0 201#05230100
(1777141330.658229) can0 202#05230100
(1777141330.660196) can0 203#05230100
(1777141330.660418) can0 204#05230100
(1777141330.701681) can0 401#37380100
(1777141330.701708) can0 411#34A2FFFF
(1777141330.702852) can0 402#12370100
(1777141330.702860) can0 412#0AB8FFFF
(1777141330.702959) can0 403#83360100
(1777141330.702977) can0 413#BFBBFFFF
(1777141330.703250) can0 404#FF360100
(1777141330.703272) can0 414#7BB9FFFF
(1777141330.713222) can0 201#D1200100
(1777141330.715478) can0 202#D1200100
(1777141330.715807) can0 203#D1200100
(1777141330.716346) can0 204#D1200100
(1777141330.751634) can0 401#F9330100
(1777141330.751662) can0 411#21ABFFFF
(1777141330.752858) can0 402#C3330100
(1777141330.752872) can0 412#D8BDFFFF
(1777141330.752879) can0 403#65330100
(1777141330.752947) can0 413#A7C1FFFF
(1777141330.753122) can0 404#C6330100
(1777141330.753224) can0 414#86BFFFFF
(1777141330.768560) can0 201#A31E0100
(1777141330.769140) can0 202#A31E0100
(1777141330.770013) can0 203#A31E0100
(1777141330.772136) can0 204#A31E0100
(1777141330.801612) can0 401#82300100
(1777141330.801676) can0 411#C1BAFFFF
(1777141330.802845) can0 402#B2300100
(1777141330.802854) can0 412#AFC2FFFF
(1777141330.803084) can0 403#84300100
(1777141330.803093) can0 413#64C6FFFF
(1777141330.803151) can0 404#CE300100
(1777141330.803251) can0 414#ADC4FFFF
(1777141330.824175) can0 201#751C0100
(1777141330.824727) can0 202#751C0100
(1777141330.826586) can0 204#751C0100
(1777141330.827000) can0 203#751C0100
(1777141330.851598) can0 401#952D0100
(1777141330.851615) can0 411#77C5FFFF
(1777141330.852741) can0 402#DC2D0100
(1777141330.852759) can0 412#49C7FFFF
(1777141330.852994) can0 403#B62D0100
(1777141330.853043) can0 413#EFC7FFFF
(1777141330.853260) can0 404#072E0100
(1777141330.853283) can0 414#6AC8FFFF
(1777141330.880388) can0 201#501A0100
(1777141330.880597) can0 202#501A0100
(1777141330.881259) can0 203#501A0100
(1777141330.882281) can0 204#501A0100
(1777141330.901727) can0 401#D42A0100
(1777141330.901744) can0 411#E6C8FFFF
(1777141330.902751) can0 402#2C2B0100
(1777141330.902761) can0 412#3CCAFFFF
(1777141330.902960) can0 403#F92A0100
(1777141330.902980) can0 413#3EC9FFFF
(1777141330.903145) can0 404#572B0100
(1777141330.903164) can0 414#4ECAFFFF
(1777141330.935477) can0 201#29180100
(1777141330.935691) can0 202#29180100
(1777141330.935901) can0 203#29180100
(1777141330.937048) can0 204#29180100
(1777141330.951752) can0 401#59280100
(1777141330.951769) can0 411#75CEFFFF
(1777141330.952890) can0 402#97280100
(1777141330.952902) can0 412#66CCFFFF
(1777141330.952967) can0 403#4D280100
(1777141330.953142) can0 413#8BCAFFFF
(1777141330.953154) can0 404#99280100
(1777141330.953208) can0 414#1AC9FFFF
(1777141330.989229) can0 201#07160100
(1777141330.990840) can0 203#07160100
(1777141330.991185) can0 202#07160100
(1777141330.991409) can0 204#07160100
(1777141331.001712) can0 401#25260100
(1777141331.001729) can0 411#E2D3FFFF
(1777141331.002850) can0 402#2A260100
(1777141331.002863) can0 412#7DCFFFFF
(1777141331.002913) can0 403#C9250100
(1777141331.003083) can0 413#B4CDFFFF
(1777141331.003141) can0 404#13260100
(1777141331.003235) can0 414#88CDFFFF
(1777141331.042966) can0 201#E7130100
(1777141331.043630) can0 202#E7130100
(1777141331.044003) can0 203#E7130100
(1777141331.046038) can0 204#E7130100
(1777141331.051678) can0 401#29240100
(1777141331.051696) can0 411#50D8FFFF
(1777141331.052787) can0 402#DA230100
(1777141331.052795) can0 412#B0D1FFFF
(1777141331.053003) can0 403#62230100
(1777141331.053045) can0 413#E7CFFFFF
(1777141331.053218) can0 404#AF230100
(1777141331.053226) can0 414#36D0FFFF
(1777141331.098052) can0 201#C2110100
(1777141331.099939) can0 203#C2110100
(1777141331.100216) can0 202#C2110100
(1777141331.101155) can0 204#C2110100
(1777141331.101539) can0 401#21220100
(1777141331.101595) can0 411#6BD7FFFF
(1777141331.102757) can0 402#8F210100
(1777141331.102766) can0 412#33D2FFFF
(1777141331.102984) can0 403#22210100
(1777141331.103033) can0 413#06D3FFFF
(1777141331.103115) can0 404#5F210100
(1777141331.103191) can0 414#C1D1FFFF
(1777141331.151606) can0 401#8F1F0100
(1777141331.151623) can0 411#9BCCFFFF
(1777141331.151668) can0 5F1#FB0101011F000003
(1777141331.151807) can0 421#402BFEFFC0D40100
(1777141331.152008) can0 431#50C3000001010300
(1777141331.152744) can0 402#491F0100
(1777141331.152826) can0 412#82D2FFFF
(1777141331.152981) can0 5F2#FB0101011F000003
(1777141331.153003) can0 403#EE1E0100
(1777141331.153163) can0 404#151F0100
(1777141331.153194) can0 414#33D2FFFF
(1777141331.153293) can0 423#402BFEFFC0D40100
(1777141331.153417) can0 424#402BFEFFC0D40100
(1777141331.153545) can0 434#50C3000001010300
(1777141331.154090) can0 202#9C0F0100
(1777141331.154299) can0 201#9C0F0100
(1777141331.155297) can0 203#9C0F0100
(1777141331.155797) can0 204#9C0F0100
(1777141331.201652) can0 401#981C0100
(1777141331.201664) can0 411#B5C4FFFF
(1777141331.202762) can0 402#021D0100
(1777141331.202770) can0 412#7AD2FFFF
(1777141331.203007) can0 403#C41C0100
(1777141331.203029) can0 413#C7D4FFFF
(1777141331.203266) can0 404#D61C0100
(1777141331.203314) can0 414#0FD3FFFF
(1777141331.208863) can0 201#7B0D0100
(1777141331.209441) can0 202#7B0D0100
(1777141331.210649) can0 204#7B0D0100
(1777141331.210940) can0 203#7B0D0100
(1777141331.251776) can0 401#EF190100
(1777141331.251825) can0 411#C0CAFFFF
(1777141331.252741) can0 402#B81A0100
(1777141331.252750) can0 412#33D2FFFF
(1777141331.252949) can0 403#A61A0100
(1777141331.253105) can0 413#A2D5FFFF
(1777141331.253248) can0 404#A81A0100
(1777141331.253284) can0 414#6FD4FFFF
(1777141331.263319) can0 201#520B0100
(1777141331.264186) can0 202#520B0100
(1777141331.265814) can0 204#520B0100
(1777141331.266219) can0 203#520B0100
(1777141331.301673) can0 401#9F170100
(1777141331.301692) can0 411#B8D1FFFF
(1777141331.302887) can0 402#87180100
(1777141331.302899) can0 412#31D4FFFF
(1777141331.302925) can0 403#95180100
(1777141331.303066) can0 413#AAD6FFFF
(1777141331.303239) can0 404#94180100
(1777141331.303277) can0 414#75D6FFFF
(1777141331.320200) can0 201#27090100
(1777141331.320402) can0 202#27090100
(1777141331.320761) can0 203#27090100
(1777141331.322189) can0 204#27090100
(1777141331.351566) can0 401#84150100
(1777141331.351631) can0 411#E9D5FFFF
(1777141331.352888) can0 402#6E160100
(1777141331.352897) can0 412#0CD6FFFF
(1777141331.352967) can0 403#95160100
(1777141331.353015) can0 413#F8D7FFFF
(1777141331.353174) can0 404#8F160100
(1777141331.353208) can0 414#97D7FFFF
(1777141331.374491) can0 201#F9060100
(1777141331.375390) can0 202#F9060100
(1777141331.377117) can0 204#F9060100
(1777141331.377326) can0 203#F9060100
(1777141331.401651) can0 401#9B130100
(1777141331.401672) can0 411#D3D9FFFF
(1777141331.402947) can0 402#5A140100
(1777141331.402959) can0 412#64D6FFFF
(1777141331.402981) can0 403#90140100
(1777141331.403127) can0 413#A9D7FFFF
(1777141331.403293) can0 404#8C140100
(1777141331.403325) can0 414#CCD7FFFF
(1777141331.430463) can0 202#D1040100
(1777141331.430720) can0 203#D1040100
(1777141331.431003) can0 201#D1040100
(1777141331.431211) can0 204#D1040100
(1777141331.451725) can0 401#D0110100
(1777141331.451735) can0 411#1FDCFFFF
(1777141331.452742) can0 402#56120100
(1777141331.452793) can0 412#BAD7FFFF
(1777141331.453002) can0 403#8F120100
(1777141331.453046) can0 413#DED7FFFF
(1777141331.453226) can0 404#95120100
(1777141331.453270) can0 414#A8D8FFFF
(1777141331.482860) can0 201#B9020100
(1777141331.484853) can0 203#B9020100
(1777141331.485064) can0 202#B9020100
(1777141331.485488) can0 204#B9020100
(1777141331.501695) can0 401#00100100
(1777141331.501706) can0 411#BFDBFFFF
(1777141331.502812) can0 402#58100100
(1777141331.502820) can0 412#24D8FFFF
(1777141331.502975) can0 403#88100100
(1777141331.502985) can0 413#7DD7FFFF
(1777141331.503348) can0 404#A0100100
(1777141331.503358) can0 414#DCD8FFFF
(1777141331.538729) can0 201#99000100
(1777141331.539416) can0 202#99000100
(1777141331.540351) can0 203#99000100
(1777141331.540993) can0 204#99000100
(1777141331.551599) can0 401#1F0E0100
(1777141331.551716) can0 411#79DAFFFF
(1777141331.552808) can0 402#610E0100
(1777141331.552817) can0 412#B9D8FFFF
(1777141331.553052) can0 403#7B0E0100
(1777141331.553097) can0 413#F9D6FFFF
(1777141331.553236) can0 404#990E0100
(1777141331.553270) can0 414#7DD7FFFF
(1777141331.593662) can0 201#6DFE0000
(1777141331.595353) can0 202#6DFE0000
(1777141331.595570) can0 203#6DFE0000
(1777141331.596426) can0 204#6DFE0000
(1777141331.601694) can0 401#510C0100
(1777141331.601714) can0 411#D9DBFFFF
(1777141331.603080) can0 402#6F0C0100
(1777141331.603087) can0 412#11D9FFFF
(1777141331.603088) can0 403#6D0C0100
(1777141331.603089) can0 413#F0D6FFFF
(1777141331.603122) can0 404#7D0C0100
(1777141331.603297) can0 414#C5D5FFFF
(1777141331.648922) can0 201#42FC0000
(1777141331.650645) can0 203#42FC0000
(1777141331.650923) can0 202#42FC0000
(1777141331.651554) can0 401#8E0A0100
(1777141331.651622) can0 411#CFDCFFFF
(1777141331.651730) can0 5F1#FB0101011F000003
(1777141331.651865) can0 421#402BFEFFC0D40100
(1777141331.651963) can0 431#50C3000001010300
(1777141331.652041) can0 204#42FC0000
(1777141331.652691) can0 5F2#FB0101011F000003
(1777141331.652795) can0 422#402BFEFFC0D40100
(1777141331.652920) can0 432#50C3000001010300
(1777141331.652995) can0 402#7B0A0100
(1777141331.653096) can0 412#F7D8FFFF
(1777141331.653196) can0 404#7D0A0100
(1777141331.653271) can0 414#0AD8FFFF
(1777141331.653394) can0 5F4#FB0101011F000003
(1777141331.653494) can0 424#402BFEFFC0D40100
(1777141331.653620) can0 434#50C3000001010300
(1777141331.701640) can0 401#E6080100
(1777141331.701658) can0 411#DFDEFFFF
(1777141331.702864) can0 402#88080100
(1777141331.702873) can0 412#F7D8FFFF
(1777141331.703077) can0 403#69080100
(1777141331.703084) can0 413#1BD8FFFF
(1777141331.703246) can0 404#82080100
(1777141331.703280) can0 414#61D8FFFF
(1777141331.705182) can0 202#18FA0000
(1777141331.705405) can0 201#18FA0000
(1777141331.705615) can0 203#18FA0000
(1777141331.707231) can0 204#18FA0000
(1777141331.751782) can0 401#4E070100
(1777141331.751803) can0 411#1BE0FFFF
(1777141331.752883) can0 402#9D060100
(1777141331.752891) can0 412#A7D9FFFF
(1777141331.753057) can0 403#78060100
(1777141331.753146) can0 413#23D9FFFF
(1777141331.753227) can0 404#86060100
(1777141331.753326) can0 414#59D8FFFF
(1777141331.760681) can0 201#EEF70000
(1777141331.760954) can0 202#EEF70000
(1777141331.761766) can0 204#EEF70000
(1777141331.761978) can0 203#EEF70000
(1777141331.801741) can0 401#78050100
(1777141331.801757) can0 411#44DBFFFF
(1777141331.802924) can0 402#A4040100
(1777141331.802932) can0 412#8DD8FFFF
(1777141331.803064) can0 403#87040100
(1777141331.803182) can0 413#3DD9FFFF
(1777141331.803204) can0 404#8C040100
(1777141331.803371) can0 414#6AD8FFFF
(1777141331.815324) can0 201#CCF50000
(1777141331.815759) can0 202#CCF50000
(1777141331.816739) can0 203#CCF50000
(1777141331.817103) can0 204#CCF50000
(1777141331.851736) can0 401#26030100
(1777141331.851754) can0 411#9ED1FFFF
(1777141331.852749) can0 402#AA020100
(1777141331.852807) can0 412#7CD8FFFF
(1777141331.853080) can0 403#91020100
(1777141331.853108) can0 413#B9D8FFFF
(1777141331.853181) can0 404#93020100
(1777141331.853282) can0 414#96D8FFFF
(1777141331.870069) can0 202#A7F30000
(1777141331.870276) can0 201#A7F30000
(1777141331.871009) can0 203#A7F30000
(1777141331.871487) can0 204#A7F30000
(1777141331.901706) can0 401#80000100
(1777141331.901725) can0 411#06CBFFFF
(1777141331.902716) can0 402#AB000100
(1777141331.902789) can0 412#12D8FFFF
(1777141331.903111) can0 403#9A000100
(1777141331.903121) can0 413#B9D8FFFF
(1777141331.903261) can0 404#98000100
(1777141331.903268) can0 414#59D8FFFF
(1777141331.924777) can0 202#85F10000
(1777141331.925053) can0 201#85F10000
(1777141331.926075) can0 203#85F10000
(1777141331.926284) can0 204#85F10000
(1777141331.951666) can0 401#20FE0000
(1777141331.951685) can0 411#85D0FFFF
(1777141331.952876) can0 402#95FE0000
(1777141331.952885) can0 412#41D6FFFF
(1777141331.953060) can0 403#A4FE0000
(1777141331.953102) can0 413#C2D8FFFF
(1777141331.953224) can0 404#9BFE0000
(1777141331.953264) can0 414#47D8FFFF
(1777141331.979256) can0 201#62EF0000
(1777141331.979462) can0 202#62EF0000
(1777141331.979874) can0 203#62EF0000
(1777141331.980344) can0 204#62EF0000
(1777141332.001735) can0 401#F9FB0000
(1777141332.001752) can0 411#F3D4FFFF
(1777141332.002849) can0 402#90FC0000
(1777141332.002862) can0 412#A0D7FFFF
(1777141332.003044) can0 403#B8FC0000
(1777141332.003059) can0 413#9ED9FFFF
(1777141332.003253) can0 404#AFFC0000
(1777141332.003268) can0 414#8CD9FFFF
(1777141332.033447) can0 202#45ED0000
(1777141332.033657) can0 201#45ED0000
(1777141332.034093) can0 203#45ED0000
(1777141332.035421) can0 204#45ED0000
(1777141332.051589) can0 401#ECF90000
(1777141332.051642) can0 411#02D7FFFF
(1777141332.052698) can0 402#96FA0000
(1777141332.052767) can0 412#85D8FFFF
(1777141332.053005) can0 403#CDFA0000
(1777141332.053054) can0 413#A7D9FFFF
(1777141332.053217) can0 404#BFFA0000
(1777141332.053317) can0 414#3DD9FFFF
(1777141332.088270) can0 201#1CEB0000
(1777141332.088688) can0 202#1CEB0000
(1777141332.090684) can0 204#1CEB0000
(1777141332.090956) can0 203#1CEB0000
(1777141332.101644) can0 401#09F80000
(1777141332.101657) can0 411#45DAFFFF
(1777141332.102794) can0 402#ABF80000
(1777141332.102808) can0 412#95D9FFFF
(1777141332.103009) can0 403#E1F80000
(1777141332.103022) can0 413#8CD9FFFF
(1777141332.103233) can0 404#CEF80000
(1777141332.103269) can0 414#34D9FFFF
(1777141332.142961) can0 201#F1E80000
(1777141332.144613) can0 203#F1E80000
(1777141332.145021) can0 202#F1E80000
(1777141332.145233) can0 204#F1E80000
(1777141332.151674) can0 401#3DF60000
(1777141332.151698) can0 411#05DCFFFF
(1777141332.151749) can0 5F1#FB0101011F000003
(1777141332.151953) can0 421#402BFEFFC0D40100
(1777141332.151997) can0 431#50C3000001010300
(1777141332.152684) can0 402#CAF60000
(1777141332.152773) can0 412#68DAFFFF
(1777141332.152886) can0 5F2#FB0101011F000003
(1777141332.153073) can0 422#402BFEFFC0D40100
(1777141332.153123) can0 423#402BFEFFC0D40100
(1777141332.153198) can0 404#E0F60000
(1777141332.153298) can0 403#ECF60000
(1777141332.153421) can0 413#D4D8FFFF
(1777141332.153498) can0 424#402BFEFFC0D40100
(1777141332.153596) can0 434#50C3000001010300
(1777141332.198490) can0 201#D4E60000
(1777141332.198734) can0 202#D4E60000
(1777141332.199426) can0 203#D4E60000
(1777141332.200603) can0 204#D4E60000
(1777141332.201614) can0 401#73F40000
(1777141332.201677) can0 411#3ADCFFFF
(1777141332.202828) can0 402#D8F40000
(1777141332.202836) can0 412#1AD9FFFF
(1777141332.203040) can0 403#F1F40000
(1777141332.203126) can0 413#6AD8FFFF
(1777141332.203226) can0 404#F1F40000
(1777141332.203327) can0 414#60D9FFFF
(1777141332.251601) can0 401#99F20000
(1777141332.251655) can0 411#FDDAFFFF
(1777141332.252834) can0 402#E4F20000
(1777141332.252854) can0 412#F7D8FFFF
(1777141332.253000) can0 403#EDF20000
(1777141332.253056) can0 413#A9D7FFFF
(1777141332.253205) can0 404#FFF20000
(1777141332.253304) can0 414#11D9FFFF
(1777141332.253726) can0 201#AAE40000
(1777141332.254027) can0 202#AAE40000
(1777141332.255190) can0 203#AAE40000
(1777141332.255736) can0 204#AAE40000
(1777141332.301718) can0 401#D5F00000
(1777141332.301740) can0 411#A3DCFFFF
(1777141332.302891) can0 402#F1F00000
(1777141332.302900) can0 412#08D9FFFF
(1777141332.303158) can0 403#DFF00000
(1777141332.303167) can0 413#E7D6FFFF
(1777141332.303297) can0 404#F3F00000
(1777141332.303347) can0 414#1CD7FFFF
(1777141332.307967) can0 201#83E20000
(1777141332.309633) can0 203#83E20000
(1777141332.309950) can0 202#83E20000
(1777141332.310161) can0 204#83E20000
(1777141332.351807) can0 401#1EEF0000
(1777141332.351822) can0 411#C5DDFFFF
(1777141332.352905) can0 402#05EF0000
(1777141332.352913) can0 412#8CD9FFFF
(1777141332.353046) can0 403#DCEE0000
(1777141332.353067) can0 413#CCD7FFFF
(1777141332.353284) can0 404#FAEE0000
(1777141332.353316) can0 414#85D8FFFF
(1777141332.363175) can0 202#63E00000
(1777141332.363434) can0 201#63E00000
(1777141332.364342) can0 203#63E00000
(1777141332.364561) can0 204#63E00000
(1777141332.401787) can0 401#7EED0000
(1777141332.401800) can0 411#7DDFFFFF
(1777141332.402857) can0 402#15ED0000
(1777141332.402865) can0 412#3DD9FFFF
(1777141332.403065) can0 403#DEEC0000
(1777141332.403073) can0 413#2DD8FFFF
(1777141332.403290) can0 404#09ED0000
(1777141332.403299) can0 414#2CD9FFFF
(1777141332.416337) can0 201#43DE0000
(1777141332.417137) can0 202#43DE0000
(1777141332.417664) can0 203#43DE0000
(1777141332.418493) can0 204#43DE0000
(1777141332.451805) can0 401#EDEB0000
(1777141332.451836) can0 411#9FE0FFFF
(1777141332.452882) can0 402#29EB0000
(1777141332.452890) can0 412#8CD9FFFF
(1777141332.453103) can0 403#F4EA0000
(1777141332.453146) can0 413#AFD9FFFF
(1777141332.453275) can0 404#16EB0000
(1777141332.453316) can0 414#08D9FFFF
(1777141332.471287) can0 201#24DC0000
(1777141332.473810) can0 202#24DC0000
(1777141332.474019) can0 203#24DC0000
(1777141332.474618) can0 204#24DC0000
(1777141332.501745) can0 401#46EA0000
(1777141332.501769) can0 411#02DFFFFF
(1777141332.502918) can0 402#30E90000
(1777141332.502926) can0 412#8DD8FFFF
(1777141332.503103) can0 403#0EE90000
(1777141332.503155) can0 413#10DAFFFF
(1777141332.503297) can0 404#29E90000
(1777141332.503306) can0 414#7BD9FFFF
(1777141332.528289) can0 201#F4D90000
(1777141332.528757) can0 202#F4D90000
(1777141332.530092) can0 203#F4D90000
(1777141332.530444) can0 204#F4D90000
(1777141332.551816) can0 401#29E80000
(1777141332.551868) can0 411#BDD5FFFF
(1777141332.552935) can0 402#3EE70000
(1777141332.552966) can0 412#1AD9FFFF
(1777141332.553138) can0 403#29E70000
(1777141332.553145) can0 413#19DAFFFF
(1777141332.553297) can0 404#36E70000
(1777141332.553305) can0 414#00D9FFFF
(1777141332.583371) can0 201#C5D70000
(1777141332.584363) can0 202#C5D70000
(1777141332.586300) can0 204#C5D70000
(1777141332.586496) can0 203#C5D70000
(1777141332.601701) can0 401#9BE50000
(1777141332.601721) can0 411#EACCFFFF
(1777141332.602910) can0 402#49E50000
(1777141332.602923) can0 412#E5D8FFFF
(1777141332.603073) can0 403#42E50000
(1777141332.603114) can0 413#EDD9FFFF
(1777141332.603376) can0 404#42E50000
(1777141332.603390) can0 414#EED8FFFF
(1777141332.639433) can0 201#95D50000
(1777141332.641539) can0 203#95D50000
(1777141332.641751) can0 202#95D50000
(1777141332.643328) can0 204#95D50000
(1777141332.651808) can0 401#03E30000
(1777141332.651834) can0 411#0ECCFFFF
(1777141332.651860) can0 5F1#FB0101011F000003
(1777141332.651975) can0 421#402BFEFFC0D40100
(1777141332.652075) can0 431#50C3000001010300
(1777141332.652886) can0 402#4BE30000
(1777141332.652895) can0 412#24D8FFFF
(1777141332.652933) can0 5F2#FB0101011F000003
(1777141332.653092) can0 403#56E30000
(1777141332.653140) can0 413#95D9FFFF
(1777141332.653224) can0 5F3#FB0101011F000003
(1777141332.653349) can0 423#402BFEFFC0D40100
(1777141332.653450) can0 433#50C3000001010300
(1777141332.653550) can0 404#4FE30000
(1777141332.653650) can0 414#08D9FFFF
(1777141332.697495) can0 201#5BD30000
(1777141332.698159) can0 202#5BD30000
(1777141332.699539) can0 203#5BD30000
(1777141332.699750) can0 204#5BD30000
(1777141332.701812) can0 401#CFE00000
(1777141332.701826) can0 411#F4D3FFFF
(1777141332.702923) can0 402#53E10000
(1777141332.702937) can0 412#9FD8FFFF
(1777141332.703075) can0 403#6DE10000
(1777141332.703125) can0 413#D3D9FFFF
(1777141332.703280) can0 404#6BE10000
(1777141332.703354) can0 414#2ADAFFFF
(1777141332.751695) can0 401#BCDE0000
(1777141332.751717) can0 411#87D6FFFF
(1777141332.752156) can0 201#29D10000
(1777141332.752941) can0 402#5EDF0000
(1777141332.752944) can0 412#D4D8FFFF
(1777141332.752981) can0 403#80DF0000
(1777141332.753101) can0 413#7BD9FFFF
(1777141332.753328) can0 404#84DF0000
(1777141332.753342) can0 202#29D10000
(1777141332.753788) can0 203#29D10000
(1777141332.754461) can0 204#29D10000
(1777141332.801752) can0 401#BDDC0000
(1777141332.801768) can0 411#12D8FFFF
(1777141332.802941) can0 402#5DDD0000
(1777141332.802954) can0 412#EFD7FFFF
(1777141332.803156) can0 403#95DD0000
(1777141332.803188) can0 413#95D9FFFF
(1777141332.803352) can0 404#93DD0000
(1777141332.803366) can0 414#34D9FFFF
(1777141332.807683) can0 202#06CF0000
(1777141332.807956) can0 201#06CF0000
(1777141332.808284) can0 203#06CF0000
(1777141332.809878) can0 204#06CF0000
(1777141332.851802) can0 401#DCDA0000
(1777141332.851813) can0 411#71DAFFFF
(1777141332.852935) can0 402#6ADB0000
(1777141332.852943) can0 412#00D9FFFF
(1777141332.853133) can0 403#A5DB0000
(1777141332.853168) can0 413#4FD9FFFF
(1777141332.853330) can0 404#A0DB0000
(1777141332.853374) can0 414#F7D8FFFF
(1777141332.862705) can0 201#DCCC0000
(1777141332.864603) can0 203#DCCC0000
(1777141332.864819) can0 202#DCCC0000
(1777141332.865820) can0 204#DCCC0000
(1777141332.901759) can0 401#09D90000
(1777141332.901772) can0 411#8ADBFFFF
(1777141332.902887) can0 402#7ED90000
(1777141332.902897) can0 412#9ED9FFFF
(1777141332.903095) can0 403#ADD90000
(1777141332.903118) can0 413#9FD8FFFF
(1777141332.903278) can0 404#B0D90000
(1777141332.903316) can0 414#4FD9FFFF
(1777141332.917572) can0 201#AECA0000
(1777141332.919135) can0 203#AECA0000
(1777141332.919398) can0 202#AECA0000
(1777141332.920016) can0 204#AECA0000
(1777141332.951627) can0 401#34D70000
(1777141332.951693) can0 411#5EDBFFFF
(1777141332.952872) can0 402#8AD70000
(1777141332.952880) can0 412#E5D8FFFF
(1777141332.953057) can0 403#A8D70000
(1777141332.953092) can0 413#8ED7FFFF
(1777141332.953191) can0 404#C0D70000
(1777141332.953266) can0 414#34D9FFFF
(1777141332.973046) can0 202#91C80000
(1777141332.973341) can0 201#91C80000
(1777141332.973820) can0 203#91C80000
(1777141332.974834) can0 204#91C80000
(1777141333.001766) can0 401#5FD50000
(1777141333.001777) can0 411#55DBFFFF
(1777141333.002908) can0 402#9AD50000
(1777141333.002982) can0 412#46D9FFFF
(1777141333.003156) can0 403#98D50000
(1777141333.003176) can0 413#CDD6FFFF
(1777141333.003350) can0 404#B2D50000
(1777141333.003375) can0 414#F0D6FFFF
(1777141333.027483) can0 201#6CC60000
(1777141333.028980) can0 203#6CC60000
(1777141333.029191) can0 202#6CC60000
(1777141333.030118) can0 204#6CC60000
(1777141333.051727) can0 401#A8D30000
(1777141333.051742) can0 411#ABDDFFFF
(1777141333.052925) can0 402#AAD30000
(1777141333.052934) can0 412#3DD9FFFF
(1777141333.053172) can0 403#91D30000
(1777141333.053205) can0 413#6BD7FFFF
(1777141333.053297) can0 404#9ED30000
(1777141333.053397) can0 414#64D6FFFF
(1777141333.083184) can0 201#42C40000
(1777141333.083394) can0 202#42C40000
(1777141333.083805) can0 203#42C40000
(1777141333.085227) can0 204#42C40000
(1777141333.101861) can0 401#F9D10000
(1777141333.101873) can0 411#52DEFFFF
(1777141333.102921) can0 402#B5D10000
(1777141333.102932) can0 412#DCD8FFFF
(1777141333.103117) can0 403#8DD10000
(1777141333.103160) can0 413#BAD7FFFF
(1777141333.103375) can0 404#A6D10000
(1777141333.103404) can0 414#B1D8FFFF
(1777141333.137171) can0 201#1BC20000
(1777141333.138090) can0 202#1BC20000
(1777141333.139583) can0 204#1BC20000
(1777141333.139995) can0 203#1BC20000
(1777141333.151852) can0 401#5CD00000
(1777141333.151864) can0 411#CCDFFFFF
(1777141333.151885) can0 5F1#FB0101011F000003
(1777141333.152078) can0 421#402BFEFFC0D40100
(1777141333.152128) can0 431#50C3000001010300
(1777141333.152815) can0 402#C4CF0000
(1777141333.152959) can0 412#2CD9FFFF
(1777141333.152981) can0 5F2#FB0101011F000003
(1777141333.153146) can0 422#402BFEFFC0D40100
(1777141333.153179) can0 403#9DCF0000
(1777141333.153279) can0 413#34D9FFFF
(1777141333.153378) can0 424#402BFEFFC0D40100
(1777141333.153502) can0 423#402BFEFFC0D40100
(1777141333.153602) can0 404#ABCF0000
(1777141333.153676) can0 414#59D8FFFF
(1777141333.191723) can0 201#F8BF0000
(1777141333.193593) can0 203#F8BF0000
(1777141333.193812) can0 202#F8BF0000
(1777141333.194023) can0 204#F8BF0000
(1777141333.201858) can0 401#BBCE0000
(1777141333.201871) can0 411#62DFFFFF
(1777141333.202945) can0 402#D6CD0000
(1777141333.202955) can0 412#69D9FFFF
(1777141333.203167) can0 403#B0CD0000
(1777141333.203176) can0 413#83D9FFFF
(1777141333.203255) can0 404#B9CD0000
(1777141333.203355) can0 414#1AD9FFFF
(1777141333.247270) can0 201#DCBD0000
(1777141333.247483) can0 202#DCBD0000
(1777141333.247729) can0 203#DCBD0000
(1777141333.248978) can0 204#DCBD0000
(1777141333.251837) can0 401#D3CC0000
(1777141333.251847) can0 411#DBD9FFFF
(1777141333.252890) can0 402#D9CB0000
(1777141333.253019) can0 412#47D8FFFF
(1777141333.253084) can0 403#CBCB0000
(1777141333.253182) can0 413#19DAFFFF
(1777141333.253308) can0 404#C9CB0000
(1777141333.253407) can0 414#3DD9FFFF
(1777141333.301643) can0 401#6ACA0000
(1777141333.301721) can0 411#D5CFFFFF
(1777141333.301802) can0 201#B4BB0000
(1777141333.303079) can0 402#E8C90000
(1777141333.303086) can0 412#1AD9FFFF
(1777141333.303087) can0 403#DDC90000
(1777141333.303143) can0 413#69D9FFFF
(1777141333.303360) can0 404#D8C90000
(1777141333.303375) can0 414#2CD9FFFF
(1777141333.303597) can0 202#B4BB0000
(1777141333.303818) can0 203#B4BB0000
(1777141333.304366) can0 204#B4BB0000
(1777141333.351885) can0 401#CDC70000
(1777141333.351897) can0 411#BFCBFFFF
(1777141333.353078) can0 402#F5C70000
(1777141333.353086) can0 412#11D9FFFF
(1777141333.353087) can0 403#ECC70000
(1777141333.353122) can0 413#23D9FFFF
(1777141333.353301) can0 404#E7C70000
(1777141333.353340) can0 414#2CD9FFFF
(1777141333.356890) can0 201#89B90000
(1777141333.358032) can0 202#89B90000
(1777141333.359720) can0 204#89B90000
(1777141333.359998) can0 203#89B90000
(1777141333.401824) can0 401#7AC50000
(1777141333.401836) can0 411#7BD1FFFF
(1777141333.403164) can0 402#E9C50000
(1777141333.403171) can0 412#02D7FFFF
(1777141333.403172) can0 403#FFC50000
(1777141333.403320) can0 404#F8C50000
(1777141333.403330) can0 414#58D9FFFF
(1777141333.413314) can0 202#5FB70000
(1777141333.413518) can0 201#5FB70000
(1777141333.413977) can0 203#5FB70000
(1777141333.415074) can0 204#5FB70000
(1777141333.451766) can0 401#5BC30000
(1777141333.451791) can0 411#99D5FFFF
(1777141333.452956) can0 402#F2C30000
(1777141333.452964) can0 412#C2D8FFFF
(1777141333.453186) can0 403#17C40000
(1777141333.453231) can0 413#D3D9FFFF
(1777141333.453399) can0 404#14C40000
(1777141333.453421) can0 414#2ADAFFFF
(1777141333.468328) can0 201#38B50000
(1777141333.468620) can0 202#38B50000
(1777141333.469502) can0 203#38B50000
(1777141333.469895) can0 204#38B50000
(1777141333.501660) can0 401#5BC10000
(1777141333.501731) can0 411#01D8FFFF
(1777141333.502831) can0 402#FAC10000
(1777141333.502938) can0 412#96D8FFFF
(1777141333.503098) can0 403#34C20000
(1777141333.503260) can0 413#45DAFFFF
(1777141333.503334) can0 404#32C20000
(1777141333.503382) can0 414#5FDAFFFF
(1777141333.521935) can0 201#17B30000
(1777141333.523320) can0 203#17B30000
(1777141333.523529) can0 202#17B30000
(1777141333.523739) can0 204#17B30000
(1777141333.551925) can0 401#84BF0000
(1777141333.551949) can0 411#32DBFFFF
(1777141333.552995) can0 402#06C00000
(1777141333.553004) can0 412#EED8FFFF
(1777141333.553136) can0 403#48C00000
(1777141333.553155) can0 413#9ED9FFFF
(1777141333.553381) can0 404#47C00000
(1777141333.553392) can0 414#A7D9FFFF
(1777141333.576715) can0 201#FCB00000
(1777141333.577250) can0 202#FCB00000
(1777141333.578148) can0 203#FCB00000
(1777141333.578750) can0 204#FCB00000
(1777141333.601800) can0 401#B4BD0000
(1777141333.601822) can0 411#BFDBFFFF
(1777141333.602920) can0 402#13BE0000
(1777141333.602929) can0 412#11D9FFFF
(1777141333.603098) can0 403#5BBE0000
(1777141333.603132) can0 413#69D9FFFF
(1777141333.603397) can0 404#56BE0000
(1777141333.603449) can0 414#2CD9FFFF
(1777141333.631297) can0 201#D5AE0000
(1777141333.632694) can0 203#D5AE0000
(1777141333.632904) can0 202#D5AE0000
(1777141333.633199) can0 204#D5AE0000
(1777141333.651802) can0 401#E7BB0000
(1777141333.651815) can0 411#FCDBFFFF
(1777141333.651946) can0 5F1#FB0101011F000003
(1777141333.651997) can0 421#402BFEFFC0D40100
(1777141333.652151) can0 431#50C3000001010300
(1777141333.652932) can0 402#27BC0000
(1777141333.652940) can0 412#8CD9FFFF
(1777141333.653050) can0 5F2#FB0101011F000003
(1777141333.653098) can0 403#5DBC0000
(1777141333.653251) can0 413#2DD8FFFF
(1777141333.653285) can0 5F3#FB0101011F000003
(1777141333.653426) can0 404#6CBC0000
(1777141333.653593) can0 414#AFD9FFFF
(1777141333.653602) can0 5F4#FB0101011F000003
(1777141333.653751) can0 424#402BFEFFC0D40100
(1777141333.653936) can0 434#50C3000001010300
(1777141333.686158) can0 201#B3AC0000
(1777141333.687002) can0 202#B3AC0000
(1777141333.687519) can0 203#B3AC0000
(1777141333.688901) can0 204#B3AC0000
(1777141333.701823) can0 401#10BA0000
(1777141333.701841) can0 411#32DBFFFF
(1777141333.702940) can0 402#3DBA0000
(1777141333.702948) can0 412#AFD9FFFF
(1777141333.703194) can0 403#54BA0000
(1777141333.703242) can0 413#51D7FFFF
(1777141333.703397) can0 404#71BA0000
(1777141333.703405) can0 414#73D8FFFF
(1777141333.741402) can0 201#85AA0000
(1777141333.742694) can0 203#85AA0000
(1777141333.743020) can0 202#85AA0000
(1777141333.743587) can0 204#85AA0000
(1777141333.751837) can0 401#42B80000
(1777141333.751858) can0 411#E2DBFFFF
(1777141333.752916) can0 402#53B80000
(1777141333.752924) can0 412#B8D9FFFF
(1777141333.753165) can0 403#4BB80000
(1777141333.753187) can0 413#51D7FFFF
(1777141333.753426) can0 404#54B80000
(1777141333.753434) can0 414#BDD5FFFF
(1777141333.796552) can0 201#64A80000
(1777141333.796906) can0 202#64A80000
(1777141333.797967) can0 203#64A80000
(1777141333.798169) can0 204#64A80000
(1777141333.801653) can0 401#8AB60000
(1777141333.801740) can0 411#A2DDFFFF
(1777141333.802775) can0 402#6AB60000
(1777141333.802932) can0 412#D3D9FFFF
(1777141333.803152) can0 403#4AB60000
(1777141333.803190) can0 413#DED7FFFF
(1777141333.803314) can0 404#5DB60000
(1777141333.803389) can0 414#B1D8FFFF
(1777141333.849933) can0 201#43A60000
(1777141333.851519) can0 203#43A60000
(1777141333.851736) can0 401#DFB40000
(1777141333.851811) can0 202#43A60000
(1777141333.852567) can0 204#43A60000
(1777141333.852867) can0 402#74B40000
(1777141333.852985) can0 412#CBD8FFFF
(1777141333.853068) can0 403#4AB40000
(1777141333.853167) can0 413#01D8FFFF
(1777141333.853292) can0 404#63B40000
(1777141333.853393) can0 414#6AD8FFFF
(1777141333.901898) can0 401#41B30000
(1777141333.901922) can0 411#B1DFFFFF
(1777141333.902921) can0 402#85B20000
(1777141333.902928) can0 412#4FD9FFFF
(1777141333.903088) can0 403#56B20000
(1777141333.903121) can0 413#00D9FFFF
(1777141333.903365) can0 404#67B20000
(1777141333.903374) can0 414#59D8FFFF
(1777141333.905974) can0 201#22A40000
(1777141333.906265) can0 202#22A40000
(1777141333.906773) can0 203#22A40000
(1777141333.907549) can0 204#22A40000
(1777141333.951764) can0 401#7DB10000
(1777141333.951813) can0 411#ACDCFFFF
(1777141333.953010) can0 402#84B00000
(1777141333.953025) can0 412#E6D7FFFF
(1777141333.953281) can0 403#6CB00000
(1777141333.953295) can0 413#B8D9FFFF
(1777141333.953324) can0 404#73B00000
(1777141333.953482) can0 414#F7D8FFFF
(1777141333.960215) can0 201#FCA10000
(1777141333.961806) can0 203#FCA10000
(1777141333.962077) can0 202#FCA10000
(1777141333.962342) can0 204#FCA10000
(1777141334.001739) can0 401#45AF0000
(1777141334.001802) can0 411#93D3FFFF
(1777141334.003010) can0 402#8EAE0000
(1777141334.003018) can0 412#CBD8FFFF
(1777141334.003226) can0 403#7EAE0000
(1777141334.003254) can0 413#69D9FFFF
(1777141334.003351) can0 404#81AE0000
(1777141334.003460) can0 414#08D9FFFF
(1777141334.015487) can0 201#D89F0000
(1777141334.015702) can0 202#D89F0000
(1777141334.016233) can0 203#D89F0000
(1777141334.016958) can0 204#D89F0000
(1777141334.051830) can0 401#B3AC0000
(1777141334.051850) can0 411#A4CCFFFF
(1777141334.052987) can0 402#99AC0000
(1777141334.052997) can0 412#DCD8FFFF
(1777141334.053213) can0 403#91AC0000
(1777141334.053223) can0 413#7BD9FFFF
(1777141334.053392) can0 404#8BAC0000
(1777141334.053443) can0 414#D4D8FFFF
(1777141334.069251) can0 201#B69D0000
(1777141334.069762) can0 202#B69D0000
(1777141334.070584) can0 203#B69D0000
(1777141334.071605) can0 204#B69D0000
(1777141334.101793) can0 401#41AA0000
(1777141334.101818) can0 411#1CCFFFFF
(1777141334.102912) can0 402#95AA0000
(1777141334.102925) can0 412#B2D7FFFF
(1777141334.103181) can0 403#9DAA0000
(1777141334.103219) can0 413#E5D8FFFF
(1777141334.103388) can0 404#8EAA0000
(1777141334.103423) can0 414#36D8FFFF
(1777141334.124478) can0 201#929B0000
(1777141334.126807) can0 203#929B0000
(1777141334.127017) can0 202#929B0000
(1777141334.127714) can0 204#929B0000
(1777141334.151904) can0 401#12A80000
(1777141334.151936) can0 411#4CD4FFFF
(1777141334.151956) can0 5F1#FB0101011F000003
(1777141334.152145) can0 421#402BFEFFC0D40100
(1777141334.152184) can0 431#50C3000001010300
(1777141334.152902) can0 5F2#FB0101011F000003
(1777141334.152947) can0 422#402BFEFFC0D40100
(1777141334.153124) can0 432#50C3000001010300
(1777141334.153197) can0 402#98A80000
(1777141334.153259) can0 412#3ED8FFFF
(1777141334.153415) can0 404#A0A80000
(1777141334.153425) can0 414#69D9FFFF
(1777141334.153534) can0 5F4#FB0101011F000003
(1777141334.153634) can0 424#402BFEFFC0D40100
(1777141334.153758) can0 434#50C3000001010300
(1777141334.180446) can0 201#61990000
(1777141334.182741) can0 202#61990000
(1777141334.182953) can0 203#61990000
(1777141334.183713) can0 204#61990000
(1777141334.201872) can0 401#07A60000
(1777141334.201897) can0 411#2ED7FFFF
(1777141334.202930) can0 402#A7A60000
(1777141334.202939) can0 412#2CD9FFFF
(1777141334.203192) can0 403#CBA60000
(1777141334.203216) can0 413#E4D9FFFF
(1777141334.203405) can0 423#402BFEFFC0D40100
(1777141334.203417) can0 404#B6A60000
(1777141334.203538) can0 414#C1D9FFFF
(1777141334.236550) can0 201#31970000
(1777141334.238269) can0 202#31970000
(1777141334.238484) can0 203#31970000
(1777141334.240025) can0 204#31970000
(1777141334.251786) can0 401#26A40000
(1777141334.251841) can0 411#5FDAFFFF
(1777141334.252954) can0 402#B6A40000
(1777141334.252991) can0 412#23D9FFFF
(1777141334.253090) can0 403#E2A40000
(1777141334.253190) can0 413#DBD9FFFF
(1777141334.253266) can0 404#D0A40000
(1777141334.253341) can0 414#07DAFFFF
(1777141334.292996) can0 201#FC940000
(1777141334.293668) can0 202#FC940000
(1777141334.294066) can0 203#FC940000
(1777141334.294560) can0 204#FC940000
(1777141334.301702) can0 401#55A20000
(1777141334.301767) can0 411#ADDBFFFF
(1777141334.302912) can0 402#C8A20000
(1777141334.302969) can0 412#69D9FFFF
(1777141334.303067) can0 403#F6A20000
(1777141334.303167) can0 413#83D9FFFF
(1777141334.303367) can0 404#EEA20000
(1777141334.303442) can0 414#4EDAFFFF
(1777141334.347207) can0 201#DE920000
(1777141334.347756) can0 202#DE920000
(1777141334.348628) can0 203#DE920000
(1777141334.350343) can0 204#DE920000
(1777141334.351799) can0 401#87A00000
(1777141334.351815) can0 411#F4DBFFFF
(1777141334.352989) can0 402#DDA00000
(1777141334.352998) can0 412#A7D9FFFF
(1777141334.353233) can0 403#03A10000
(1777141334.353272) can0 413#08D9FFFF
(1777141334.353345) can0 404#07A10000
(1777141334.353421) can0 414#FFD9FFFF
(1777141334.401890) can0 401#AD9E0000
(1777141334.401915) can0 411#F5DAFFFF
(1777141334.402941) can0 402#EC9E0000
(1777141334.402949) can0 412#2CD9FFFF
(1777141334.403186) can0 403#029F0000
(1777141334.403233) can0 413#EFD7FFFF
(1777141334.403358) can0 404#159F0000
(1777141334.403430) can0 414#1AD9FFFF
(1777141334.403484) can0 201#AF900000
(1777141334.403774) can0 202#AF900000
(1777141334.404360) can0 203#AF900000
(1777141334.405072) can0 204#AF900000
(1777141334.451860) can0 401#D59C0000
(1777141334.451886) can0 411#21DBFFFF
(1777141334.453024) can0 402#FC9C0000
(1777141334.453033) can0 412#46D9FFFF
(1777141334.453088) can0 403#F59C0000
(1777141334.453251) can0 413#F9D6FFFF
(1777141334.453282) can0 404#079D0000
(1777141334.453438) can0 414#E7D6FFFF
(1777141334.457112) can0 201#8E8E0000
(1777141334.458938) can0 202#8E8E0000
(1777141334.459150) can0 203#8E8E0000
(1777141334.459465) can0 204#8E8E0000
(1777141334.501790) can0 401#149B0000
(1777141334.501825) can0 411#EADCFFFF
(1777141334.503015) can0 402#0F9B0000
(1777141334.503052) can0 412#7BD9FFFF
(1777141334.503266) can0 403#F09A0000
(1777141334.503302) can0 413#A0D7FFFF
(1777141334.503380) can0 404#FC9A0000
(1777141334.503480) can0 414#25D7FFFF
(1777141334.512741) can0 202#6C8C0000
(1777141334.512952) can0 201#6C8C0000
(1777141334.513307) can0 203#6C8C0000
(1777141334.514563) can0 204#6C8C0000
(1777141334.551754) can0 401#6C990000
(1777141334.551823) can0 411#DEDEFFFF
(1777141334.553047) can0 402#1F990000
(1777141334.553074) can0 412#3DD9FFFF
(1777141334.553223) can0 403#F4980000
(1777141334.553264) can0 413#47D8FFFF
(1777141334.553425) can0 404#09990000
(1777141334.553463) can0 414#F7D8FFFF
(1777141334.567290) can0 201#468A0000
(1777141334.568977) can0 203#468A0000
(1777141334.569189) can0 202#468A0000
(1777141334.570224) can0 204#468A0000
(1777141334.601866) can0 401#DD970000
(1777141334.601881) can0 411#D4E0FFFF
(1777141334.602908) can0 402#2C970000
(1777141334.603029) can0 412#08D9FFFF
(1777141334.603276) can0 403#01970000
(1777141334.603285) can0 413#08D9FFFF
(1777141334.603359) can0 404#1A970000
(1777141334.603460) can0 414#4FD9FFFF
(1777141334.623287) can0 201#19880000
(1777141334.623752) can0 202#19880000
(1777141334.624638) can0 203#19880000
(1777141334.625969) can0 204#19880000
(1777141334.651823) can0 401#39960000
(1777141334.651845) can0 411#25DFFFFF
(1777141334.651867) can0 5F1#FB0101011F000003
(1777141334.651999) can0 421#402BFEFFC0D40100
(1777141334.652194) can0 431#50C3000001010300
(1777141334.652960) can0 402#40950000
(1777141334.652969) can0 412#95D9FFFF
(1777141334.653104) can0 5F2#FB0101011F000003
(1777141334.653242) can0 422#402BFEFFC0D40100
(1777141334.653265) can0 423#402BFEFFC0D40100
(1777141334.653406) can0 404#2C950000
(1777141334.653442) can0 403#16950000
(1777141334.653583) can0 413#9ED9FFFF
(1777141334.653704) can0 424#402BFEFFC0D40100
(1777141334.653834) can0 434#50C3000001010300
(1777141334.678941) can0 201#E9850000
(1777141334.681206) can0 203#E9850000
(1777141334.681416) can0 202#E9850000
(1777141334.681789) can0 204#E9850000
(1777141334.701712) can0 401#3B940000
(1777141334.701754) can0 411#2DD8FFFF
(1777141334.703042) can0 402#46930000
(1777141334.703054) can0 412#6AD8FFFF
(1777141334.703154) can0 403#2D930000
(1777141334.703192) can0 413#DBD9FFFF
(1777141334.703342) can0 404#38930000
(1777141334.703417) can0 414#F7D8FFFF
(1777141334.734351) can0 201#BD830000
(1777141334.735010) can0 202#BD830000
(1777141334.737376) can0 204#BD830000
(1777141334.737593) can0 203#BD830000
(1777141334.751917) can0 401#C3910000
(1777141334.751934) can0 411#AACEFFFF
(1777141334.753050) can0 402#4E910000
(1777141334.753063) can0 412#9FD8FFFF
(1777141334.753269) can0 403#41910000
(1777141334.753308) can0 413#8CD9FFFF
(1777141334.753484) can0 404#44910000
(1777141334.753498) can0 414#E5D8FFFF
(1777141334.790491) can0 201#8D810000
(1777141334.792851) can0 203#8D810000
(1777141334.793156) can0 202#8D810000
(1777141334.793716) can0 204#8D810000
(1777141334.801873) can0 401#308F0000
(1777141334.801893) can0 411#78CCFFFF
(1777141334.802880) can0 402#588F0000
(1777141334.802959) can0 412#CBD8FFFF
(1777141334.803265) can0 403#588F0000
(1777141334.803274) can0 413#C1D9FFFF
(1777141334.803433) can0 404#4F8F0000
(1777141334.803442) can0 414#E5D8FFFF
(1777141334.846247) can0 201#5E7F0000
(1777141334.846909) can0 202#5E7F0000
(1777141334.847420) can0 203#5E7F0000
(1777141334.848077) can0 204#5E7F0000
(1777141334.851859) can0 401#E98C0000
(1777141334.851881) can0 411#7AD2FFFF
(1777141334.852929) can0 402#4D8D0000
(1777141334.852958) can0 412#2ED7FFFF
(1777141334.853266) can0 403#698D0000
(1777141334.853274) can0 413#60D9FFFF
(1777141334.853489) can0 404#5E8D0000
(1777141334.853574) can0 414#23D9FFFF
(1777141334.900661) can0 201#3D7D0000
(1777141334.901818) can0 401#C88A0000
(1777141334.901878) can0 411#76D5FFFF
(1777141334.902745) can0 202#3D7D0000
(1777141334.902856) can0 402#568B0000
(1777141334.902930) can0 412#A8D8FFFF
(1777141334.902979) can0 203#3D7D0000
(1777141334.903223) can0 403#7E8B0000
(1777141334.903257) can0 413#95D9FFFF
(1777141334.903380) can0 404#718B0000
(1777141334.903455) can0 414#83D9FFFF
(1777141334.903983) can0 204#3D7D0000
(1777141334.951815) can0 401#C4880000
(1777141334.951860) can0 411#A0D7FFFF
(1777141334.952988) can0 402#59890000
(1777141334.953056) can0 412#3ED8FFFF
(1777141334.953131) can0 403#94890000
(1777141334.953207) can0 413#B8D9FFFF
(1777141334.953332) can0 404#7E890000
(1777141334.953432) can0 414#08D9FFFF
(1777141334.956279) can0 201#0F7B0000
(1777141334.957853) can0 203#0F7B0000
(1777141334.958062) can0 202#0F7B0000
(1777141334.958395) can0 204#0F7B0000
(1777141335.001994) can0 401#E2860000
(1777141335.002015) can0 411#68DAFFFF
(1777141335.002941) can0 402#66870000
(1777141335.003009) can0 412#08D9FFFF
(1777141335.003108) can0 403#A3870000
(1777141335.003182) can0 413#3DD9FFFF
(1777141335.003296) can0 404#8C870000
(1777141335.003450) can0 414#11D9FFFF
(1777141335.011621) can0 201#F0780000
(1777141335.012521) can0 202#F0780000
(1777141335.013106) can0 203#F0780000
(1777141335.013465) can0 204#F0780000
(1777141335.051746) can0 401#0F850000
(1777141335.051821) can0 411#81DBFFFF
(1777141335.052923) can0 402#77850000
(1777141335.052985) can0 412#60D9FFFF
(1777141335.053210) can0 403#A7850000
(1777141335.053286) can0 413#50D8FFFF
(1777141335.053400) can0 404#A0850000
(1777141335.053486) can0 414#8CD9FFFF
(1777141335.065485) can0 201#CA760000
(1777141335.067137) can0 202#CA760000
(1777141335.067432) can0 203#CA760000
(1777141335.067767) can0 204#CA760000
(1777141335.101871) can0 401#3D830000
(1777141335.101898) can0 411#9CDBFFFF
(1777141335.102909) can0 402#8C830000
(1777141335.102970) can0 412#95D9FFFF
(1777141335.103225) can0 403#A3830000
(1777141335.103264) can0 413#A0D7FFFF
(1777141335.103388) can0 404#AF830000
(1777141335.103490) can0 414#2CD9FFFF
(1777141335.119999) can0 201#AA740000
(1777141335.120900) can0 202#AA740000
(1777141335.121510) can0 203#AA740000
(1777141335.122206) can0 204#AA740000
(1777141335.151873) can0 401#64810000
(1777141335.151903) can0 411#FDDAFFFF
(1777141335.151928) can0 5F1#FB0101011F000003
(1777141335.152111) can0 421#402BFEFFC0D40100
(1777141335.152171) can0 431#50C3000001010300
(1777141335.152906) can0 402#9C810000
(1777141335.152979) can0 412#3DD9FFFF
(1777141335.153116) can0 5F2#FB0101011F000003
(1777141335.153145) can0 403#95810000
(1777141335.153216) can0 413#F0D6FFFF
(1777141335.153341) can0 5F3#FB0101011F000003
(1777141335.153441) can0 404#A9810000
(1777141335.153542) can0 414#8ED7FFFF
(1777141335.153642) can0 5F4#FB0101011F000003
(1777141335.153766) can0 424#402BFEFFC0D40100
(1777141335.153934) can0 434#50C3000001010300
(1777141335.175371) can0 201#89720000
(1777141335.176428) can0 202#89720000
(1777141335.176966) can0 203#89720000
(1777141335.178464) can0 204#89720000
(1777141335.201886) can0 401#A57F0000
(1777141335.201904) can0 411#16DDFFFF
(1777141335.202932) can0 402#AE7F0000
(1777141335.203007) can0 412#69D9FFFF
(1777141335.203195) can0 403#8B7F0000
(1777141335.203221) can0 413#3FD7FFFF
(1777141335.203419) can0 404#9D7F0000
(1777141335.203519) can0 414#02D7FFFF
(1777141335.231346) can0 201#54700000
(1777141335.233428) can0 203#54700000
(1777141335.233647) can0 202#54700000
(1777141335.234131) can0 204#54700000
(1777141335.251921) can0 401#F37D0000
(1777141335.251950) can0 411#14DEFFFF
(1777141335.252925) can0 402#C67D0000
(1777141335.252933) can0 412#E4D9FFFF
(1777141335.253354) can0 403#8C7D0000
(1777141335.253362) can0 413#0AD8FFFF
(1777141335.253424) can0 404#A87D0000
(1777141335.253500) can0 414#EED8FFFF
(1777141335.286973) can0 201#286E0000
(1777141335.288826) can0 203#286E0000
(1777141335.289036) can0 202#286E0000
(1777141335.289700) can0 204#286E0000
(1777141335.301898) can0 401#587C0000
(1777141335.301910) can0 411#E6DFFFFF
(1777141335.303072) can0 402#D17B0000
(1777141335.303080) can0 412#E5D8FFFF
(1777141335.303214) can0 403#9A7B0000
(1777141335.303233) can0 413#23D9FFFF
(1777141335.303460) can0 404#BA7B0000
(1777141335.303502) can0 414#58D9FFFF
(1777141335.342042) can0 201#FD6B0000
(1777141335.343189) can0 202#FD6B0000
(1777141335.345376) can0 204#FD6B0000
(1777141335.345679) can0 203#FD6B0000
(1777141335.351854) can0 401#C07A0000
(1777141335.351866) can0 411#1BE0FFFF
(1777141335.352933) can0 402#E6790000
(1777141335.353070) can0 412#9ED9FFFF
(1777141335.353205) can0 403#B5790000
(1777141335.353238) can0 413#19DAFFFF
(1777141335.353448) can0 404#CD790000
(1777141335.353481) can0 414#8CD9FFFF
(1777141335.397912) can0 201#CF690000
(1777141335.398612) can0 202#CF690000
(1777141335.399368) can0 203#CF690000
(1777141335.401310) can0 204#CF690000
(1777141335.401926) can0 401#EE780000
(1777141335.401938) can0 411#9CDBFFFF
(1777141335.402916) can0 402#F2770000
(1777141335.403048) can0 412#F7D8FFFF
(1777141335.403194) can0 403#D4770000
(1777141335.403215) can0 413#5FDAFFFF
(1777141335.403383) can0 404#E9770000
(1777141335.403519) can0 414#22DAFFFF
(1777141335.451950) can0 401#AB760000
(1777141335.451977) can0 411#C9D2FFFF
(1777141335.452933) can0 402#F9750000
(1777141335.453008) can0 412#8DD8FFFF
(1777141335.453234) can0 403#EA750000
(1777141335.453308) can0 413#C1D9FFFF
(1777141335.453466) can0 404#F4750000
(1777141335.453483) can0 414#E5D8FFFF
(1777141335.453892) can0 201#A1670000
(1777141335.455810) can0 202#A1670000
(1777141335.456021) can0 203#A1670000
(1777141335.456793) can0 204#A1670000
(1777141335.501811) can0 401#0F740000
(1777141335.501861) can0 411#D1CBFFFF
(1777141335.502916) can0 402#00740000
(1777141335.503035) can0 412#8DD8FFFF
(1777141335.503285) can0 403#FD730000
(1777141335.503316) can0 413#72D9FFFF
(1777141335.503501) can0 404#00740000
(1777141335.503540) can0 414#F7D8FFFF
(1777141335.509516) can0 201#77650000
(1777141335.510482) can0 202#77650000
(1777141335.512342) can0 203#77650000
(1777141335.512948) can0 204#77650000
(1777141335.551936) can0 401#99710000
(1777141335.551961) can0 411#CDCEFFFF
(1777141335.552910) can0 402#F7710000
(1777141335.552969) can0 412#3FD7FFFF
(1777141335.553213) can0 403#0E720000
(1777141335.553289) can0 413#60D9FFFF
(1777141335.553415) can0 404#05720000
(1777141335.553515) can0 414#61D8FFFF
(1777141335.565934) can0 201#43630000
(1777141335.568288) can0 202#43630000
(1777141335.568563) can0 203#43630000
(1777141335.569511) can0 204#43630000
(1777141335.601918) can0 401#726F0000
(1777141335.601930) can0 411#EAD4FFFF
(1777141335.603109) can0 402#FB6F0000
(1777141335.603119) can0 412#50D8FFFF
(1777141335.603284) can0 403#26700000
(1777141335.603293) can0 413#E4D9FFFF
(1777141335.603395) can0 404#18700000
(1777141335.603470) can0 414#72D9FFFF
(1777141335.621625) can0 201#0E610000
(1777141335.622038) can0 202#0E610000
(1777141335.622637) can0 203#0E610000
(1777141335.624565) can0 204#0E610000
(1777141335.651883) can0 401#626D0000
(1777141335.651904) can0 411#CDD6FFFF
(1777141335.651932) can0 5F1#FB0101011F000003
(1777141335.652107) can0 421#402BFEFFC0D40100
(1777141335.652187) can0 431#50C3000001010300
(1777141335.652919) can0 402#046E0000
(1777141335.653039) can0 412#B1D8FFFF
(1777141335.653082) can0 5F2#FB0101011F000003
(1777141335.653249) can0 403#3A6E0000
(1777141335.653256) can0 413#8CD9FFFF
(1777141335.653435) can0 5F3#FB0101011F000003
(1777141335.653471) can0 404#2A6E0000
(1777141335.653546) can0 414#69D9FFFF
(1777141335.653645) can0 5F4#FB0101011F000003
(1777141335.653771) can0 424#402BFEFFC0D40100
(1777141335.653896) can0 434#50C3000001010300
(1777141335.677893) can0 201#EA5E0000
(1777141335.678221) can0 202#EA5E0000
(1777141335.678429) can0 203#EA5E0000
(1777141335.679089) can0 204#EA5E0000
(1777141335.701931) can0 401#6F6B0000
(1777141335.701970) can0 411#00D9FFFF
(1777141335.702957) can0 402#0D6C0000
(1777141335.703078) can0 412#C2D8FFFF
(1777141335.703256) can0 403#4A6C0000
(1777141335.703279) can0 413#46D9FFFF
(1777141335.703376) can0 404#376C0000
(1777141335.703451) can0 414#00D9FFFF
(1777141335.731315) can0 201#CA5C0000
(1777141335.731982) can0 202#CA5C0000
(1777141335.733180) can0 203#CA5C0000
(1777141335.733805) can0 204#CA5C0000
(1777141335.751815) can0 401#96690000
(1777141335.751849) can0 411#0FDBFFFF
(1777141335.752919) can0 402#1B6A0000
(1777141335.753059) can0 412#11D9FFFF
(1777141335.753129) can0 403#576A0000
(1777141335.753228) can0 413#00D9FFFF
(1777141335.753453) can0 404#4E6A0000
(1777141335.753554) can0 414#DBD9FFFF
(1777141335.786860) can0 201#A65A0000
(1777141335.787285) can0 202#A65A0000
(1777141335.788667) can0 204#A65A0000
(1777141335.788975) can0 203#A65A0000
(1777141335.801932) can0 401#C9670000
(1777141335.801957) can0 411#F3DBFFFF
(1777141335.803116) can0 402#2C680000
(1777141335.803125) can0 412#58D9FFFF
(1777141335.803301) can0 403#5B680000
(1777141335.803332) can0 413#50D8FFFF
(1777141335.803406) can0 404#65680000
(1777141335.803506) can0 414#CAD9FFFF
(1777141335.842590) can0 201#7A580000
(1777141335.842810) can0 202#7A580000
(1777141335.843455) can0 203#7A580000
(1777141335.844663) can0 204#7A580000
(1777141335.851911) can0 401#FC650000
(1777141335.852038) can0 411#FCDBFFFF
(1777141335.853112) can0 402#3F660000
(1777141335.853120) can0 412#72D9FFFF
(1777141335.853291) can0 403#54660000
(1777141335.853301) can0 413#6BD7FFFF
(1777141335.853385) can0 404#74660000
(1777141335.853459) can0 414#23D9FFFF
(1777141335.898080) can0 201#50560000
(1777141335.898743) can0 202#50560000
(1777141335.899572) can0 203#50560000
(1777141335.901422) can0 204#50560000
(1777141335.901919) can0 401#32640000
(1777141335.901944) can0 411#43DCFFFF
(1777141335.903067) can0 402#52640000
(1777141335.903075) can0 412#83D9FFFF
(1777141335.903263) can0 403#4C640000
(1777141335.903363) can0 413#6BD7FFFF
(1777141335.903462) can0 404#61640000
(1777141335.903538) can0 414#7ED6FFFF
(1777141335.951942) can0 401#74620000
(1777141335.951973) can0 411#1EDDFFFF
(1777141335.953014) can0 402#66620000
(1777141335.953024) can0 412#8CD9FFFF
(1777141335.953270) can0 403#46620000
(1777141335.953291) can0 413#86D7FFFF
(1777141335.953562) can0 404#5E620000
(1777141335.953639) can0 414#D5D7FFFF
(1777141335.954177) can0 201#17540000
(1777141335.956383) can0 202#17540000
(1777141335.957200) can0 203#17540000
(1777141335.957479) can0 204#17540000
(1777141336.001936) can0 401#CE600000
(1777141336.001963) can0 411#02DFFFFF
(1777141336.003128) can0 402#79600000
(1777141336.003138) can0 412#83D9FFFF
(1777141336.003279) can0 403#46600000
(1777141336.003285) can0 413#01D8FFFF
(1777141336.003492) can0 404#65600000
(1777141336.003641) can0 414#7CD8FFFF
(1777141336.010373) can0 201#E6510000
(1777141336.011425) can0 202#E6510000
(1777141336.012571) can0 203#E6510000
(1777141336.013182) can0 204#E6510000
(1777141336.051995) can0 401#345F0000
(1777141336.052020) can0 411#01E0FFFF
(1777141336.053075) can0 402#875E0000
(1777141336.053086) can0 412#11D9FFFF
(1777141336.053333) can0 403#525E0000
(1777141336.053358) can0 413#E5D8FFFF
(1777141336.053540) can0 404#6E5E0000
(1777141336.053572) can0 414#C2D8FFFF
(1777141336.066229) can0 201#B74F0000
(1777141336.067283) can0 202#B74F0000
(1777141336.069659) can0 203#B74F0000
(1777141336.069963) can0 204#B74F0000
(1777141336.101935) can0 401#715D0000
(1777141336.101992) can0 411#C6DCFFFF
(1777141336.103043) can0 402#915C0000
(1777141336.103055) can0 412#C2D8FFFF
(1777141336.103317) can0 403#715C0000
(1777141336.103324) can0 413#68DAFFFF
(1777141336.103476) can0 404#7D5C0000
(1777141336.103550) can0 414#23D9FFFF
(1777141336.123084) can0 201#814D0000
(1777141336.125004) can0 203#814D0000
(1777141336.125297) can0 202#814D0000
(1777141336.126731) can0 204#814D0000
(1777141336.151924) can0 401#585B0000
(1777141336.151981) can0 411#03D6FFFF
(1777141336.152060) can0 5F1#FB0101011F000003
(1777141336.152254) can0 421#402BFEFFC0D40100
(1777141336.152301) can0 431#50C3000001010300
(1777141336.153034) can0 402#9A5A0000
(1777141336.153108) can0 412#C2D8FFFF
(1777141336.153319) can0 5F2#FB0101011F000003
(1777141336.153331) can0 403#845A0000
(1777141336.153386) can0 413#83D9FFFF
(1777141336.153476) can0 404#8B5A0000
(1777141336.153578) can0 414#11D9FFFF
(1777141336.153676) can0 433#50C3000001010300
(1777141336.153819) can0 424#402BFEFFC0D40100
(1777141336.153965) can0 434#50C3000001010300
(1777141336.179734) can0 201#494B0000
(1777141336.182071) can0 203#494B0000
(1777141336.182281) can0 202#494B0000
(1777141336.182753) can0 204#494B0000
(1777141336.201933) can0 401#DF580000
(1777141336.201958) can0 411#99CEFFFF
(1777141336.203060) can0 402#A7580000
(1777141336.203069) can0 412#00D9FFFF
(1777141336.203322) can0 403#99580000
(1777141336.203354) can0 413#A7D9FFFF
(1777141336.203454) can0 404#97580000
(1777141336.203529) can0 414#00D9FFFF
(1777141336.235418) can0 201#1B490000
(1777141336.236192) can0 202#1B490000
(1777141336.237156) can0 203#1B490000
(1777141336.239238) can0 204#1B490000
(1777141336.251843) can0 401#62560000
(1777141336.251987) can0 411#38CEFFFF
(1777141336.252989) can0 402#AA560000
(1777141336.253008) can0 412#35D8FFFF
(1777141336.253294) can0 403#AE560000
(1777141336.253334) can0 413#A7D9FFFF
(1777141336.253433) can0 404#AA560000
(1777141336.253533) can0 414#72D9FFFF
(1777141336.291925) can0 201#E3460000
(1777141336.294108) can0 203#E3460000
(1777141336.294317) can0 202#E3460000
(1777141336.294709) can0 204#E3460000
(1777141336.301957) can0 401#3C540000
(1777141336.301970) can0 411#0DD5FFFF
(1777141336.303076) can0 402#AF540000
(1777141336.303087) can0 412#61D8FFFF
(1777141336.303281) can0 403#C4540000
(1777141336.303312) can0 413#AFD9FFFF
(1777141336.303412) can0 404#C0540000
(1777141336.303487) can0 414#B8D9FFFF
(1777141336.347163) can0 201#BB440000
(1777141336.348304) can0 202#BB440000
(1777141336.349404) can0 203#BB440000
(1777141336.351511) can0 204#BB440000
(1777141336.351922) can0 401#24520000
(1777141336.351950) can0 411#1DD6FFFF
(1777141336.353096) can0 402#C0520000
(1777141336.353104) can0 412#58D9FFFF
(1777141336.353275) can0 403#E0520000
(1777141336.353292) can0 413#33DAFFFF
(1777141336.353513) can0 404#DA520000
(1777141336.353662) can0 414#07DAFFFF
(1777141336.401990) can0 401#2D500000
(1777141336.402020) can0 411#A8D8FFFF
(1777141336.403029) can0 402#C5500000
(1777141336.403037) can0 412#61D8FFFF
(1777141336.403375) can0 403#F6500000
(1777141336.403383) can0 413#C1D9FFFF
(1777141336.403467) can0 404#EB500000
(1777141336.403541) can0 414#60D9FFFF
(1777141336.404479) can0 201#80420000
(1777141336.406429) can0 203#80420000
(1777141336.406759) can0 202#80420000
(1777141336.407176) can0 204#80420000
(1777141336.452007) can0 401#564E0000
(1777141336.452020) can0 411#3BDBFFFF
(1777141336.453120) can0 402#D54E0000
(1777141336.453127) can0 412#4FD9FFFF
(1777141336.453305) can0 403#0B4F0000
(1777141336.453325) can0 413#95D9FFFF
(1777141336.453420) can0 404#FC4E0000
(1777141336.453520) can0 414#46D9FFFF
(1777141336.459473) can0 201#57400000
(1777141336.460773) can0 202#57400000
(1777141336.463087) can0 204#57400000
(1777141336.463295) can0 203#57400000
(1777141336.502030) can0 401#8E4C0000
(1777141336.502055) can0 411#66DCFFFF
(1777141336.503153) can0 402#ED4C0000
(1777141336.503161) can0 412#DBD9FFFF
(1777141336.503278) can0 403#134D0000
(1777141336.503306) can0 413#B1D8FFFF
(1777141336.503538) can0 404#0F4D0000
(1777141336.503591) can0 414#8CD9FFFF
(1777141336.516545) can0 201#243E0000
(1777141336.518274) can0 202#243E0000
(1777141336.519128) can0 203#243E0000
(1777141336.520059) can0 204#243E0000
(1777141336.551932) can0 401#CB4A0000
(1777141336.551986) can0 411#BEDCFFFF
(1777141336.553088) can0 402#034B0000
(1777141336.553096) can0 412#AFD9FFFF
(1777141336.553362) can0 403#0F4B0000
(1777141336.553401) can0 413#A0D7FFFF
(1777141336.553500) can0 404#214B0000
(1777141336.553576) can0 414#60D9FFFF
(1777141336.572668) can0 201#ED3B0000
(1777141336.574553) can0 203#ED3B0000
(1777141336.574750) can0 202#ED3B0000
(1777141336.575298) can0 204#ED3B0000
(1777141336.601920) can0 401#F4480000
(1777141336.602043) can0 411#3BDBFFFF
(1777141336.603091) can0 402#15490000
(1777141336.603099) can0 412#72D9FFFF
(1777141336.603316) can0 403#05490000
(1777141336.603392) can0 413#37D7FFFF
(1777141336.603514) can0 404#1F490000
(1777141336.603534) can0 414#D5D7FFFF
(1777141336.627712) can0 201#C5390000
(1777141336.628537) can0 202#C5390000
(1777141336.629273) can0 203#C5390000
(1777141336.631376) can0 204#C5390000
(1777141336.651923) can0 401#2A470000
(1777141336.651969) can0 411#28DCFFFF
(1777141336.652143) can0 5F1#FB0101011F000003
(1777141336.652197) can0 421#402BFEFFC0D40100
(1777141336.652305) can0 431#50C3000001010300
(1777141336.653067) can0 402#22470000
(1777141336.653074) can0 412#00D9FFFF
(1777141336.653155) can0 5F2#FB0101011F000003
(1777141336.653280) can0 422#402BFEFFC0D40100
(1777141336.653406) can0 423#402BFEFFC0D40100
(1777141336.653479) can0 404#0F470000
(1777141336.653579) can0 403#FB460000
(1777141336.653679) can0 413#48D7FFFF
(1777141336.653935) can0 424#402BFEFFC0D40100
(1777141336.653941) can0 434#50C3000001010300
(1777141336.684015) can0 201#93370000
(1777141336.685322) can0 202#93370000
(1777141336.687503) can0 203#93370000
(1777141336.687707) can0 204#93370000
(1777141336.702033) can0 401#6C450000
(1777141336.702045) can0 411#30DDFFFF
(1777141336.703116) can0 402#2E450000
(1777141336.703124) can0 412#EED8FFFF
(1777141336.703343) can0 403#00450000
(1777141336.703391) can0 413#59D8FFFF
(1777141336.703552) can0 404#1D450000
(1777141336.703600) can0 414#1AD9FFFF
(1777141336.740322) can0 201#61350000
(1777141336.742926) can0 202#61350000
(1777141336.743209) can0 203#61350000
(1777141336.744429) can0 204#61350000
(1777141336.752006) can0 401#C8430000
(1777141336.752026) can0 411#36DFFFFF
(1777141336.753166) can0 402#38430000
(1777141336.753177) can0 412#CBD8FFFF
(1777141336.753354) can0 403#0A430000
(1777141336.753361) can0 413#CBD8FFFF
(1777141336.753533) can0 404#30430000
(1777141336.753569) can0 414#72D9FFFF
(1777141336.798094) can0 201#2A330000
(1777141336.798302) can0 202#2A330000
(1777141336.799665) can0 203#2A330000
(1777141336.800380) can0 204#2A330000
(1777141336.801946) can0 401#18420000
(1777141336.801965) can0 411#40DEFFFF
(1777141336.803143) can0 402#49410000
(1777141336.803152) can0 412#4FD9FFFF
(1777141336.803268) can0 403#20410000
(1777141336.803369) can0 413#B8D9FFFF
(1777141336.803444) can0 404#3D410000
(1777141336.803544) can0 414#08D9FFFF
(1777141336.851972) can0 401#1E400000
(1777141336.852006) can0 411#73D8FFFF
(1777141336.853024) can0 402#4B3F0000
(1777141336.853043) can0 412#24D8FFFF
(1777141336.853305) can0 403#333F0000
(1777141336.853338) can0 201#F9300000
(1777141336.853619) can0 404#483F0000
(1777141336.853692) can0 414#E5D8FFFF
(1777141336.855574) can0 203#F9300000
(1777141336.855796) can0 202#F9300000
(1777141336.856892) can0 204#F9300000
(1777141336.902181) can0 401#BF3D0000
(1777141336.902231) can0 411#96D0FFFF
(1777141336.903205) can0 402#4D3D0000
(1777141336.903213) can0 412#35D8FFFF
(1777141336.903251) can0 403#4A3D0000
(1777141336.903384) can0 413#C1D9FFFF
(1777141336.903589) can0 404#483D0000
(1777141336.903642) can0 414#01D8FFFF
(1777141336.909572) can0 201#C52E0000
(1777141336.912051) can0 202#C52E0000
(1777141336.912263) can0 203#C52E0000
(1777141336.912944) can0 204#C52E0000
(1777141336.952047) can0 401#363B0000
(1777141336.952072) can0 411#4BCDFFFF
(1777141336.953264) can0 402#543B0000
(1777141336.953292) can0 412#7CD8FFFF
(1777141336.953344) can0 403#573B0000
(1777141336.953466) can0 413#00D9FFFF
(1777141336.953516) can0 404#503B0000
(1777141336.953644) can0 414#9FD8FFFF
(1777141336.965566) can0 201#952C0000
(1777141336.966554) can0 202#952C0000
(1777141336.967467) can0 203#952C0000
(1777141336.968391) can0 204#952C0000
(1777141337.001985) can0 401#E2380000
(1777141337.002006) can0 411#72D1FFFF
(1777141337.003108) can0 402#4C390000
(1777141337.003118) can0 412#63D7FFFF
(1777141337.003376) can0 403#64390000
(1777141337.003407) can0 413#11D9FFFF
(1777141337.003541) can0 404#56390000
(1777141337.003586) can0 414#73D8FFFF
(1777141337.021451) can0 201#692A0000
(1777141337.022643) can0 202#692A0000
(1777141337.024603) can0 204#692A0000
(1777141337.024865) can0 203#692A0000
(1777141337.052078) can0 401#C5360000
(1777141337.052101) can0 411#B4D5FFFF
(1777141337.053115) can0 402#59370000
(1777141337.053124) can0 412#08D9FFFF
(1777141337.053357) can0 403#7D370000
(1777141337.053363) can0 413#EDD9FFFF
(1777141337.053544) can0 404#68370000
(1777141337.053553) can0 414#69D9FFFF
(1777141337.077801) can0 201#35280000
(1777141337.078478) can0 202#35280000
(1777141337.079504) can0 203#35280000
(1777141337.080256) can0 204#35280000
(1777141337.101924) can0 401#C4340000
(1777141337.101939) can0 411#F8D7FFFF
(1777141337.103210) can0 402#65350000
(1777141337.103222) can0 412#F7D8FFFF
(1777141337.103367) can0 403#92350000
(1777141337.103378) can0 413#A7D9FFFF
(1777141337.103622) can0 404#7C350000
(1777141337.103647) can0 414#83D9FFFF
(1777141337.133124) can0 201#0C260000
(1777141337.133740) can0 202#0C260000
(1777141337.134427) can0 203#0C260000
(1777141337.135051) can0 204#0C260000
(1777141337.152024) can0 401#E0320000
(1777141337.152044) can0 411#2ADAFFFF
(1777141337.152114) can0 5F1#FB0101011F000003
(1777141337.152311) can0 421#402BFEFFC0D40100
(1777141337.152362) can0 431#50C3000001010300
(1777141337.153130) can0 5F2#FB0101011F000003
(1777141337.153138) can0 422#402BFEFFC0D40100
(1777141337.153324) can0 432#50C3000001010300
(1777141337.153332) can0 402#7B330000
(1777141337.153411) can0 412#AFD9FFFF
(1777141337.153536) can0 5F3#FB0101011F000003
(1777141337.153636) can0 404#92330000
(1777141337.153711) can0 414#CAD9FFFF
(1777141337.153913) can0 5F4#FB0101011F000003
(1777141337.153940) can0 424#402BFEFFC0D40100
(1777141337.154060) can0 434#50C3000001010300
(1777141337.187009) can0 201#EA230000
(1777141337.187522) can0 202#EA230000
(1777141337.189207) can0 204#EA230000
(1777141337.189519) can0 203#EA230000
(1777141337.201932) can0 401#14310000
(1777141337.201989) can0 411#0EDCFFFF
(1777141337.203193) can0 402#91310000
(1777141337.203202) can0 412#B8D9FFFF
(1777141337.203370) can0 403#B1310000
(1777141337.203380) can0 413#08D9FFFF
(1777141337.203549) can0 433#50C3000001010300
(1777141337.203571) can0 404#A6310000
(1777141337.203781) can0 414#8CD9FFFF
(1777141337.242924) can0 201#C6210000
(1777141337.243201) can0 202#C6210000
(1777141337.243910) can0 203#C6210000
(1777141337.244747) can0 204#C6210000
(1777141337.251933) can0 401#4A2F0000
(1777141337.251995) can0 411#31DCFFFF
(1777141337.253172) can0 402#A02F0000
(1777141337.253181) can0 412#2CD9FFFF
(1777141337.253269) can0 403#B12F0000
(1777141337.253343) can0 413#0AD8FFFF
(1777141337.253543) can0 404#BD2F0000
(1777141337.253619) can0 414#C1D9FFFF
(1777141337.298152) can0 201#A01F0000
(1777141337.298370) can0 202#A01F0000
(1777141337.298981) can0 203#A01F0000
(1777141337.299383) can0 204#A01F0000
(1777141337.302041) can0 401#792D0000
(1777141337.302062) can0 411#B6DBFFFF
(1777141337.303200) can0 402#AC2D0000
(1777141337.303210) can0 412#F7D8FFFF
(1777141337.303322) can0 403#B02D0000
(1777141337.303422) can0 413#E6D7FFFF
(1777141337.303522) can0 404#CE2D0000
(1777141337.303596) can0 414#60D9FFFF
(1777141337.351884) can0 401#AC2B0000
(1777141337.351949) can0 411#FCDBFFFF
(1777141337.352516) can0 201#7F1D0000
(1777141337.352765) can0 202#7F1D0000
(1777141337.353059) can0 203#7F1D0000
(1777141337.353079) can0 402#BF2B0000
(1777141337.353176) can0 412#7BD9FFFF
(1777141337.353276) can0 403#AA2B0000
(1777141337.353377) can0 413#7DD7FFFF
(1777141337.353551) can0 404#BC2B0000
(1777141337.353627) can0 414#90D6FFFF
(1777141337.354891) can0 204#7F1D0000
(1777141337.401998) can0 401#EF290000
(1777141337.402025) can0 411#39DDFFFF
(1777141337.403114) can0 402#CF290000
(1777141337.403123) can0 412#3DD9FFFF
(1777141337.403341) can0 403#A8290000
(1777141337.403394) can0 413#E6D7FFFF
(1777141337.403592) can0 404#C8290000
(1777141337.403643) can0 414#EED8FFFF
(1777141337.407867) can0 201#511B0000
(1777141337.409743) can0 202#511B0000
(1777141337.410017) can0 203#511B0000
(1777141337.410583) can0 204#511B0000
(1777141337.451939) can0 401#4D280000
(1777141337.451955) can0 411#51DFFFFF
(1777141337.453163) can0 402#D0270000
(1777141337.453182) can0 412#1BD8FFFF
(1777141337.453335) can0 403#AF270000
(1777141337.453358) can0 413#8DD8FFFF
(1777141337.453572) can0 404#CE270000
(1777141337.453605) can0 414#85D8FFFF
(1777141337.463013) can0 201#25190000
(1777141337.465005) can0 202#25190000
(1777141337.465307) can0 203#25190000
(1777141337.465536) can0 204#25190000
(1777141337.502038) can0 401#B3260000
(1777141337.502074) can0 411#F8DFFFFF
(1777141337.503201) can0 402#DE250000
(1777141337.503209) can0 412#11D9FFFF
(1777141337.503335) can0 403#C0250000
(1777141337.503362) can0 413#4FD9FFFF
(1777141337.503483) can0 404#D6250000
(1777141337.503584) can0 414#8DD8FFFF
(1777141337.517489) can0 201#01170000
(1777141337.518115) can0 202#01170000
(1777141337.518458) can0 203#01170000
(1777141337.520400) can0 204#01170000
(1777141337.552055) can0 401#E9240000
(1777141337.552079) can0 411#3ADCFFFF
(1777141337.553093) can0 402#E8230000
(1777141337.553112) can0 412#D4D8FFFF
(1777141337.553300) can0 403#D7230000
(1777141337.553338) can0 413#CAD9FFFF
(1777141337.553462) can0 404#E3230000
(1777141337.553562) can0 414#08D9FFFF
(1777141337.573776) can0 201#DA140000
(1777141337.574052) can0 202#DA140000
(1777141337.575128) can0 203#DA140000
(1777141337.575403) can0 204#DA140000
(1777141337.602060) can0 401#B5220000
(1777141337.602077) can0 411#F4D3FFFF
(1777141337.603230) can0 402#F7210000
(1777141337.603239) can0 412#23D9FFFF
(1777141337.603433) can0 403#EC210000
(1777141337.603465) can0 413#9ED9FFFF
(1777141337.603563) can0 404#F1210000
(1777141337.603663) can0 414#23D9FFFF
(1777141337.628688) can0 201#B5120000
(1777141337.629349) can0 202#B5120000
(1777141337.630989) can0 203#B5120000
(1777141337.631199) can0 204#B5120000
(1777141337.652023) can0 401#1F200000
(1777141337.652042) can0 411#43CCFFFF
(1777141337.652093) can0 5F1#FB0101011F000003
(1777141337.652217) can0 421#402BFEFFC0D40100
(1777141337.652342) can0 431#50C3000001010300
(1777141337.653237) can0 402#FB1F0000
(1777141337.653247) can0 412#47D8FFFF
(1777141337.653361) can0 5F2#FB0101011F000003
(1777141337.653487) can0 422#402BFEFFC0D40100
(1777141337.653536) can0 432#50C3000001010300
(1777141337.653687) can0 403#FB1F0000
(1777141337.653811) can0 413#3DD9FFFF
(1777141337.653854) can0 5F4#FB0101011F000003
(1777141337.654024) can0 424#402BFEFFC0D40100
(1777141337.654142) can0 434#50C3000001010300
(1777141337.684218) can0 201#86100000
(1777141337.686016) can0 203#86100000
(1777141337.686227) can0 202#86100000
(1777141337.686615) can0 204#86100000
(1777141337.701935) can0 401#A31D0000
(1777141337.701970) can0 411#5BCEFFFF
(1777141337.703180) can0 402#ED1D0000
(1777141337.703189) can0 412#F0D6FFFF
(1777141337.703347) can0 403#121E0000
(1777141337.703353) can0 413#CAD9FFFF
(1777141337.703570) can0 404#0C1E0000
(1777141337.703669) can0 414#23D9FFFF
(1777141337.739669) can0 202#5E0E0000
(1777141337.739931) can0 201#5E0E0000
(1777141337.741001) can0 203#5E0E0000
(1777141337.741286) can0 204#5E0E0000
(1777141337.752017) can0 401#731B0000
(1777141337.752034) can0 411#3AD4FFFF
(1777141337.753174) can0 402#F01B0000
(1777141337.753185) can0 412#35D8FFFF
(1777141337.753453) can0 403#281C0000
(1777141337.753478) can0 413#AFD9FFFF
(1777141337.753575) can0 404#151C0000
(1777141337.753649) can0 414#B9D8FFFF
(1777141337.794117) can0 201#380C0000
(1777141337.796467) can0 203#380C0000
(1777141337.796677) can0 202#380C0000
(1777141337.798066) can0 204#380C0000
(1777141337.802048) can0 401#60190000
(1777141337.802068) can0 411#87D6FFFF
(1777141337.803183) can0 402#031A0000
(1777141337.803191) can0 412#83D9FFFF
(1777141337.803325) can0 403#4B1A0000
(1777141337.803428) can0 413#B7DAFFFF
(1777141337.803528) can0 404#2E1A0000
(1777141337.803628) can0 414#EDD9FFFF
(1777141337.851002) can0 201#000A0000
(1777141337.852074) can0 401#75170000
(1777141337.852092) can0 411#A7D9FFFF
(1777141337.853112) can0 402#14180000
(1777141337.853132) can0 412#4FD9FFFF
(1777141337.853344) can0 403#62180000
(1777141337.853413) can0 413#DBD9FFFF
(1777141337.853501) can0 203#000A0000
(1777141337.853590) can0 414#60D9FFFF
(1777141337.853753) can0 202#000A0000
(1777141337.854389) can0 204#000A0000
(1777141337.901964) can0 401#A6150000
(1777141337.901997) can0 411#D9DBFFFF
(1777141337.903282) can0 402#2C160000
(1777141337.903290) can0 412#DBD9FFFF
(1777141337.903309) can0 403#71160000
(1777141337.903408) can0 413#23D9FFFF
(1777141337.903583) can0 404#4E160000
(1777141337.903683) can0 414#1AD9FFFF
(1777141337.907299) can0 201#CD070000
(1777141337.909589) can0 202#CD070000
(1777141337.910375) can0 203#CD070000
(1777141337.911136) can0 204#CD070000
(1777141337.951957) can0 401#D9130000
(1777141337.952015) can0 411#F3DBFFFF
(1777141337.953284) can0 402#48140000
(1777141337.953294) can0 412#3CDAFFFF
(1777141337.953479) can0 403#78140000
(1777141337.953489) can0 413#8DD8FFFF
(1777141337.953634) can0 404#63140000
(1777141337.953667) can0 414#A7D9FFFF
(1777141337.965432) can0 201#94050000
(1777141337.966010) can0 202#94050000
(1777141337.967510) can0 203#94050000
(1777141337.967829) can0 204#94050000
(1777141338.002035) can0 401#08120000
(1777141338.002062) can0 411#B6DBFFFF
(1777141338.003257) can0 402#58120000
(1777141338.003269) can0 412#3DD9FFFF
(1777141338.003344) can0 403#79120000
(1777141338.003476) can0 413#0AD8FFFF
(1777141338.003651) can0 404#6F120000
(1777141338.003687) can0 414#EED8FFFF
(1777141338.020346) can0 201#61030000
(1777141338.022206) can0 202#61030000
(1777141338.022918) can0 203#61030000
(1777141338.023183) can0 204#61030000
(1777141338.052063) can0 401#3B100000
(1777141338.052108) can0 411#EBDBFFFF
(1777141338.053251) can0 402#66100000
(1777141338.053270) can0 412#11D9FFFF
(1777141338.053289) can0 403#6C100000
(1777141338.053410) can0 413#02D7FFFF
(1777141338.053542) can0 404#5E100000
(1777141338.053643) can0 414#B3D6FFFF
(1777141338.077179) can0 201#34010000
(1777141338.077974) can0 202#34010000
(1777141338.078575) can0 203#34010000
(1777141338.080022) can0 204#34010000
(1777141338.102011) can0 401#800E0000
(1777141338.102035) can0 411#65DDFFFF
(1777141338.103184) can0 402#780E0000
(1777141338.103198) can0 412#72D9FFFF
(1777141338.103271) can0 403#660E0000
(1777141338.103371) can0 413#86D7FFFF
(1777141338.103546) can0 404#5D0E0000
(1777141338.103647) can0 414#EFD7FFFF
(1777141338.133002) can0 201#FDFEFFFF
(1777141338.135054) can0 202#FDFEFFFF
(1777141338.135267) can0 203#FDFEFFFF
(1777141338.136204) can0 204#FDFEFFFF
(1777141338.152112) can0 401#D70C0000
(1777141338.152136) can0 411#D6DEFFFF
(1777141338.152174) can0 5F1#FB0101011F000003
(1777141338.152345) can0 421#402BFEFFC0D40100
(1777141338.152424) can0 431#50C3000001010300
(1777141338.153085) can0 402#8A0C0000
(1777141338.153148) can0 412#60D9FFFF
(1777141338.153247) can0 5F2#FB0101011F000003
(1777141338.153376) can0 403#660C0000
(1777141338.153450) can0 413#01D8FFFF
(1777141338.153548) can0 5F3#FB0101011F000003
(1777141338.153649) can0 404#720C0000
(1777141338.153776) can0 414#A7D9FFFF
(1777141338.153913) can0 5F4#FB0101011F000003
(1777141338.154044) can0 424#402BFEFFC0D40100
(1777141338.154097) can0 434#50C3000001010300
(1777141338.189427) can0 201#CAFCFFFF
(1777141338.191853) can0 203#CAFCFFFF
(1777141338.192134) can0 202#CAFCFFFF
(1777141338.192529) can0 204#CAFCFFFF
(1777141338.202133) can0 401#390B0000
(1777141338.202157) can0 411#A9DFFFFF
(1777141338.203223) can0 402#950A0000
(1777141338.203231) can0 412#DCD8FFFF
(1777141338.203354) can0 403#780A0000
(1777141338.203429) can0 413#72D9FFFF
(1777141338.203604) can0 404#830A0000
(1777141338.203705) can0 414#4FD9FFFF
(1777141338.245090) can0 201#9AFAFFFF
(1777141338.246169) can0 202#9AFAFFFF
(1777141338.248252) can0 204#9AFAFFFF
(1777141338.248462) can0 203#9AFAFFFF
(1777141338.252081) can0 401#8D090000
(1777141338.252098) can0 411#8FDEFFFF
(1777141338.253146) can0 402#A8080000
(1777141338.253153) can0 412#7BD9FFFF
(1777141338.253330) can0 403#96080000
(1777141338.253430) can0 413#56DAFFFF
(1777141338.253580) can0 404#9A080000
(1777141338.253655) can0 414#CAD9FFFF
(1777141338.301647) can0 201#64F8FFFF
(1777141338.302062) can0 401#87070000
(1777141338.302079) can0 411#7DD7FFFF
(1777141338.303139) can0 402#AD060000
(1777141338.303208) can0 412#61D8FFFF
(1777141338.303333) can0 403#B2060000
(1777141338.303433) can0 413#2ADAFFFF
(1777141338.303559) can0 404#A7060000
(1777141338.303670) can0 414#00D9FFFF
(1777141338.303955) can0 202#64F8FFFF
(1777141338.304180) can0 203#64F8FFFF
(1777141338.306355) can0 204#64F8FFFF
(1777141338.352085) can0 401#17050000
(1777141338.352108) can0 411#51CFFFFF
(1777141338.353232) can0 402#AF040000
(1777141338.353242) can0 412#35D8FFFF
(1777141338.353375) can0 403#C7040000
(1777141338.353421) can0 413#AFD9FFFF
(1777141338.353615) can0 404#AF040000
(1777141338.353666) can0 414#A8D8FFFF
(1777141338.359049) can0 201#26F6FFFF
(1777141338.360891) can0 202#26F6FFFF
(1777141338.361186) can0 203#26F6FFFF
(1777141338.362597) can0 204#26F6FFFF
(1777141338.401943) can0 401#7C020000
(1777141338.401988) can0 411#E2CBFFFF
(1777141338.403308) can0 402#AD020000
(1777141338.403316) can0 412#CCD7FFFF
(1777141338.403339) can0 403#D6020000
(1777141338.403439) can0 413#23D9FFFF
(1777141338.403639) can0 404#B5020000
(1777141338.403714) can0 414#73D8FFFF
(1777141338.416503) can0 201#F2F3FFFF
(1777141338.417063) can0 202#F2F3FFFF
(1777141338.417640) can0 203#F2F3FFFF
(1777141338.419254) can0 204#F2F3FFFF
(1777141338.452130) can0 401#42000000
(1777141338.452164) can0 411#70D3FFFF
(1777141338.453308) can0 402#A3000000
(1777141338.453318) can0 412#48D7FFFF
(1777141338.453485) can0 403#E1000000
(1777141338.453518) can0 413#E5D8FFFF
(1777141338.453641) can0 404#BD000000
(1777141338.453716) can0 414#9FD8FFFF
(1777141338.472409) can0 201#BBF1FFFF
(1777141338.474833) can0 202#BBF1FFFF
(1777141338.475127) can0 203#BBF1FFFF
(1777141338.475460) can0 204#BBF1FFFF
(1777141338.502057) can0 401#28FEFFFF
(1777141338.502075) can0 411#03D6FFFF
(1777141338.503203) can0 402#B2FEFFFF
(1777141338.503270) can0 412#23D9FFFF
(1777141338.503474) can0 403#F3FEFFFF
(1777141338.503480) can0 413#60D9FFFF
(1777141338.503671) can0 404#CFFEFFFF
(1777141338.503705) can0 414#72D9FFFF
(1777141338.528409) can0 201#8AEFFFFF
(1777141338.530214) can0 202#8AEFFFFF
(1777141338.530426) can0 203#8AEFFFFF
(1777141338.530665) can0 204#8AEFFFFF
(1777141338.552002) can0 401#21FCFFFF
(1777141338.552051) can0 411#6BD7FFFF
(1777141338.553318) can0 402#BBFCFFFF
(1777141338.553327) can0 412#B1D8FFFF
(1777141338.553399) can0 403#08FDFFFF
(1777141338.553499) can0 413#A7D9FFFF
(1777141338.553601) can0 404#E0FCFFFF
(1777141338.553677) can0 414#46D9FFFF
(1777141338.582578) can0 201#66EDFFFF
(1777141338.584368) can0 203#66EDFFFF
(1777141338.584580) can0 202#66EDFFFF
(1777141338.585170) can0 204#66EDFFFF
(1777141338.602131) can0 401#3BFAFFFF
(1777141338.602149) can0 411#07DAFFFF
(1777141338.603329) can0 402#C7FAFFFF
(1777141338.603337) can0 412#EED8FFFF
(1777141338.603414) can0 403#18FBFFFF
(1777141338.603555) can0 413#3DD9FFFF
(1777141338.603564) can0 404#F4FAFFFF
(1777141338.603695) can0 414#8CD9FFFF
(1777141338.638525) can0 201#43EBFFFF
(1777141338.638734) can0 202#43EBFFFF
(1777141338.639959) can0 203#43EBFFFF
(1777141338.640242) can0 204#43EBFFFF
(1777141338.652156) can0 401#6EF8FFFF
(1777141338.652175) can0 411#05DCFFFF
(1777141338.652229) can0 5F1#FB0101011F000003
(1777141338.652406) can0 421#402BFEFFC0D40100
(1777141338.652454) can0 431#50C3000001010300
(1777141338.653300) can0 402#E4F8FFFF
